!Keysight Technologies,N5247B,MY61255065,A.16.20.04
!Date: Sunday, September 03, 2023 21:52:06
!Correction: S11(C  2-Port  ) 
!S21(C  2-Port  ) 
!S12(C  2-Port  ) 
!S22(C  2-Port  ) 
!S2P File: Measurements: S11, S21, S12, S22:
!Deduct Board Loss
# Hz S  dB   R 50
10000000	-30.102003	-174.957430	-1.947309	-0.639258	-1.944183	-0.648687	-30.119394	-177.546010
100000000	-30.882921	167.578660	-1.930704	-7.467003	-1.934713	-7.454212	-30.996012	167.218460
200000000	-31.650541	159.889180	-1.932549	-14.742532	-1.935985	-14.719225	-31.812794	159.540240
300000000	-32.418011	154.882810	-1.934618	-21.966955	-1.937497	-21.945326	-32.440147	152.453600
400000000	-33.036346	150.340040	-1.933669	-29.146757	-1.936740	-29.133148	-33.129322	148.701310
500000000	-33.494705	145.331590	-1.935268	-36.313915	-1.937299	-36.303089	-33.587479	143.833530
600000000	-33.844635	142.702270	-1.935614	-43.476696	-1.938997	-43.461960	-34.065975	141.488710
700000000	-33.929123	140.089690	-1.934880	-50.617199	-1.937263	-50.610168	-34.247040	139.223420
800000000	-33.809502	137.491100	-1.935001	-57.768417	-1.938816	-57.761799	-34.516949	137.580830
900000000	-33.787731	135.535000	-1.935697	-64.912056	-1.939070	-64.901604	-34.404495	134.963010
1000000000	-33.474445	133.272320	-1.934513	-72.062263	-1.938884	-72.044594	-34.383045	133.482740
2000000000	-29.364471	89.674767	-1.936023	-143.274780	-1.940070	-143.276140	-30.204908	92.086395
2500000000	-28.133020	57.337624	-1.933924	-178.766980	-1.936437	-178.727390	-28.975803	57.880581
3000000000	-28.058962	21.441580	-1.926371	145.730190	-1.930644	145.766980	-28.743443	18.910875
3500000000	-29.118807	-16.834969	-1.922978	110.267140	-1.923759	110.273680	-29.447775	-23.482641
4000000000	-31.079250	-56.734230	-1.920629	74.808174	-1.921999	74.788094	-30.543531	-70.953941
4500000000	-33.743214	-100.355270	-1.917963	39.313908	-1.922151	39.316196	-31.120148	-122.772360
5000000000	-36.306740	-152.193800	-1.916804	3.830201	-1.921082	3.843722	-31.018530	-172.721860
5500000000	-38.565861	151.322420	-1.918346	-31.614023	-1.921739	-31.610279	-30.353853	141.511990
6000000000	-38.968945	88.918297	-1.917551	-67.046555	-1.921003	-67.055031	-29.623802	100.445320
6500000000	-37.555679	40.571339	-1.917425	-102.456210	-1.922667	-102.452550	-29.097420	62.788769
7000000000	-36.077908	1.910115	-1.918400	-137.858380	-1.923483	-137.850560	-28.837523	25.880346
7500000000	-34.930740	-27.562262	-1.920324	-173.261430	-1.923697	-173.259580	-28.733156	-6.624957
8000000000	-34.169201	-49.492081	-1.921949	151.363710	-1.926236	151.355580	-29.005936	-34.928909
8500000000	-33.151737	-66.932709	-1.923494	115.996730	-1.928331	115.980470	-29.519249	-57.964844
9000000000	-31.195032	-81.965851	-1.931565	80.645065	-1.934577	80.618370	-29.503847	-75.496582
9500000000	-28.910618	-100.010330	-1.931829	45.285507	-1.936494	45.257309	-28.637306	-89.394875
10000000000	-26.649282	-124.178470	-1.935256	9.924470	-1.939782	9.901895	-27.402380	-105.681860
10500000000	-25.137749	-152.286830	-1.935015	-25.429150	-1.940957	-25.455904	-26.259893	-127.172700
11000000000	-24.826803	177.453250	-1.925109	-60.756062	-1.930083	-60.774204	-25.975309	-151.737530
11500000000	-25.717209	144.502670	-1.913055	-96.106476	-1.918258	-96.131622	-27.293291	-176.207860
12000000000	-28.928366	103.739460	-1.903134	-131.491610	-1.907067	-131.524830	-31.052996	170.376540
12500000000	-35.132156	36.434906	-1.902527	-166.912310	-1.905448	-166.928220	-34.909523	-161.300420
13000000000	-33.653439	-77.446823	-1.913972	157.658570	-1.918041	157.645220	-29.802481	-140.388720
13500000000	-28.234842	-132.001160	-1.933596	122.266110	-1.937333	122.244500	-25.739683	-156.182790
14000000000	-26.414808	-166.591580	-1.940901	86.902756	-1.945382	86.882385	-24.303997	179.815520
14500000000	-27.087585	162.385360	-1.930134	51.526051	-1.934858	51.501163	-24.523348	157.274320
15000000000	-30.347885	138.280850	-1.910657	16.116404	-1.912766	16.092606	-26.168798	139.855060
15500000000	-36.547344	140.065170	-1.892459	-19.292969	-1.897243	-19.314812	-28.145325	131.143450
16000000000	-35.697392	-178.561770	-1.893902	-54.747486	-1.896051	-54.768673	-28.754723	128.002260
16500000000	-31.408863	172.744230	-1.910752	-90.185852	-1.914657	-90.208977	-28.131298	116.684170
17000000000	-30.136747	147.890850	-1.930332	-125.630450	-1.933838	-125.648890	-28.065573	94.778763
17500000000	-31.358608	120.548970	-1.934072	-161.113360	-1.941180	-161.135440	-29.510036	65.409607
18000000000	-35.922535	112.145200	-1.923269	163.333530	-1.929214	163.334150	-34.992764	26.742525
18500000000	-34.723698	171.120990	-1.904568	127.786190	-1.908421	127.766860	-39.653778	-133.458250
19000000000	-26.609158	166.215360	-1.891421	92.179466	-1.896690	92.132454	-27.321383	169.461720
19500000000	-21.657581	139.340100	-1.912221	56.614105	-1.919304	56.594635	-21.976507	134.816670
20000000000	-18.806986	110.463840	-1.967155	21.185953	-1.971678	21.188086	-18.984747	101.027680
20500000000	-17.536676	80.349007	-2.022914	-14.079175	-2.030082	-14.114535	-17.546158	68.867828
21000000000	-17.396328	52.505955	-2.049876	-49.240829	-2.054680	-49.295467	-17.511950	37.927780
21500000000	-18.468084	27.165928	-2.035699	-84.502197	-2.041741	-84.519470	-18.759541	6.933810
22000000000	-20.667969	5.986573	-1.990207	-119.974760	-1.996244	-119.959370	-21.498167	-22.661312
22500000000	-23.571667	-5.831495	-1.950819	-155.552290	-1.957148	-155.542180	-26.474617	-43.521030
23000000000	-25.812494	-6.093963	-1.920619	168.841140	-1.923881	168.866000	-35.117878	-41.211048
23500000000	-26.974945	-10.759531	-1.908698	133.183590	-1.912510	133.198120	-37.382309	5.164227
24000000000	-28.953085	-25.739067	-1.906334	97.520790	-1.912048	97.545586	-37.976768	9.843760
24500000000	-35.662453	-36.210949	-1.909699	61.844940	-1.913282	61.843655	-39.987671	59.005375
25000000000	-37.520397	70.401604	-1.919455	26.129467	-1.922736	26.113777	-30.097187	81.532738
25500000000	-27.911062	57.315819	-1.933682	-9.543939	-1.936614	-9.568397	-24.845905	61.662941
26000000000	-23.682554	30.999838	-1.948819	-45.180168	-1.953701	-45.197842	-21.935678	33.235538
26500000000	-21.625399	2.585915	-1.959942	-80.752586	-1.962281	-80.764915	-20.128435	2.952639
27000000000	-20.778761	-29.065491	-1.967097	-116.260530	-1.971409	-116.335510	-19.325802	-27.004992
27500000000	-20.592884	-61.079235	-1.967674	-151.816970	-1.969774	-151.908680	-19.215559	-57.611019
28000000000	-20.893663	-94.174774	-1.959611	172.602250	-1.965084	172.499950	-19.482803	-89.669060
28500000000	-20.999754	-127.497630	-1.956117	136.938960	-1.962848	136.835400	-19.938759	-123.562870
29000000000	-21.001562	-161.899140	-1.956292	101.301690	-1.963730	101.214780	-20.200178	-160.465770
29500000000	-20.911449	162.637510	-1.958704	65.721054	-1.961676	65.617767	-20.163855	162.214100
30000000000	-21.136585	130.101350	-1.950797	30.158331	-1.955399	30.076380	-20.533209	127.215480
30500000000	-22.350918	100.920630	-1.932660	-5.405975	-1.938035	-5.478630	-21.855330	93.934853
31000000000	-24.473186	77.770790	-1.897282	-41.093033	-1.897456	-41.163704	-24.961861	60.802959
31500000000	-28.134829	67.290878	-1.865265	-76.853477	-1.864880	-76.926773	-30.664536	31.106581
32000000000	-30.904566	70.474846	-1.832309	-112.650040	-1.836877	-112.722670	-51.725220	-73.221825
32500000000	-32.114273	59.718407	-1.812277	-148.470370	-1.815450	-148.537520	-35.062836	-169.688980
33000000000	-41.367886	7.696188	-1.805177	175.668990	-1.804885	175.588810	-29.564383	-172.340550
33500000000	-30.752388	-135.681150	-1.804043	139.793120	-1.806750	139.707700	-24.848572	179.630940
34000000000	-23.393637	-170.215440	-1.810030	103.955760	-1.810175	103.860650	-20.903444	162.757140
34500000000	-20.003674	160.996080	-1.793440	68.296776	-1.797829	68.211609	-18.929152	138.366470
35000000000	-18.962328	136.613420	-1.761431	32.700825	-1.765231	32.622704	-18.381308	110.879050
35500000000	-20.083294	114.959590	-1.716624	-2.915262	-1.720908	-2.987238	-19.831690	82.835693
36000000000	-22.355164	104.272080	-1.683156	-38.738907	-1.686067	-38.840076	-24.058273	57.154869
36500000000	-23.509129	112.396290	-1.680925	-74.693649	-1.687994	-74.827751	-34.988087	50.199780
37000000000	-21.542788	115.620540	-1.706717	-110.708560	-1.709225	-110.831470	-29.120554	145.344910
37500000000	-19.116806	100.087840	-1.729848	-146.713260	-1.728308	-146.757770	-22.829147	122.845750
38000000000	-17.876682	78.985680	-1.710683	177.488660	-1.712484	177.441800	-20.571236	97.362617
38500000000	-17.923042	55.256329	-1.667949	141.652310	-1.672265	141.607240	-20.456507	68.874237
39000000000	-18.702971	33.610260	-1.618188	105.864970	-1.620334	105.771010	-21.634047	43.867100
39500000000	-21.048210	21.538540	-1.580487	69.942947	-1.581829	69.896088	-24.168114	32.012604
40000000000	-23.962067	18.066975	-1.554946	33.859497	-1.558010	33.793282	-25.742617	38.800545
40500000000	-24.281033	18.312813	-1.549000	-2.243371	-1.549901	-2.313309	-24.714783	35.696186
41000000000	-23.410172	13.656847	-1.548510	-38.340488	-1.545192	-38.448116	-22.981636	13.656983
41500000000	-23.717657	1.941725	-1.509005	-74.418114	-1.516738	-74.568298	-22.676250	-19.331211
42000000000	-24.821632	-13.510980	-1.484950	-110.692010	-1.491993	-110.752270	-23.520481	-60.688084
42500000000	-27.050037	-16.267878	-1.462824	-146.971740	-1.469332	-147.041890	-24.907820	-117.499980
43000000000	-28.247334	-0.482808	-1.416169	176.642290	-1.419373	176.621290	-25.010532	178.527480
43500000000	-25.203880	-0.807759	-1.410357	140.099690	-1.407471	140.078400	-23.305309	115.397880
44000000000	-21.707684	-14.761550	-1.418583	103.606700	-1.412675	103.524720	-21.410061	63.493855
44500000000	-19.408598	-33.230381	-1.397513	67.081390	-1.400437	66.999344	-20.207304	15.994055
45000000000	-17.839376	-58.976067	-1.401372	30.558804	-1.397967	30.480587	-18.982473	-29.764397
45500000000	-16.580572	-86.877281	-1.409602	-5.954617	-1.402443	-6.015025	-17.828133	-73.307571
46000000000	-15.973903	-116.493190	-1.419569	-42.314701	-1.421284	-42.411697	-17.021984	-112.215780
46500000000	-15.798512	-148.774510	-1.430822	-78.647720	-1.436585	-78.743439	-16.580961	-148.093490
47000000000	-16.020391	179.849700	-1.451933	-114.989200	-1.454055	-115.039980	-16.572199	179.150250
47500000000	-16.720650	148.365780	-1.456172	-151.357060	-1.452106	-151.407060	-17.016926	149.278060
48000000000	-17.693113	118.166510	-1.443221	172.257200	-1.438456	172.156220	-17.583138	120.511590
48500000000	-19.444145	90.424179	-1.401696	135.662890	-1.411717	135.588130	-18.176615	94.940643
49000000000	-21.631845	61.817646	-1.365669	98.973190	-1.363364	98.875717	-18.355156	71.241608
49500000000	-23.125254	34.759705	-1.340921	62.175049	-1.338955	62.086788	-18.635849	47.217873
50000000000	-23.606150	9.829625	-1.315435	25.283123	-1.326250	25.222651	-19.032700	20.401144
50500000000	-23.683193	-18.083475	-1.320106	-11.669213	-1.318390	-11.707412	-20.024565	-9.634661
51000000000	-23.945894	-54.350929	-1.329053	-48.683910	-1.327754	-48.738857	-21.700676	-47.488655
51500000000	-23.909264	-101.474580	-1.347189	-85.744698	-1.345869	-85.815567	-23.590416	-101.830430
52000000000	-23.890505	-154.223110	-1.400707	-122.826930	-1.398439	-122.896590	-22.592733	-163.957870
52500000000	-23.075207	155.318050	-1.457629	-159.777690	-1.455456	-159.875760	-20.275572	147.556790
53000000000	-22.671083	113.822820	-1.513808	163.369110	-1.516025	163.272740	-18.611799	112.978740
53500000000	-23.271883	84.473808	-1.571994	126.585670	-1.568173	126.539080	-17.754213	87.225632
54000000000	-24.204376	80.104401	-1.600457	89.925919	-1.591467	89.807495	-17.951210	69.828224
54500000000	-23.875450	87.217628	-1.605227	53.074097	-1.600378	52.918945	-17.655893	55.674026
55000000000	-21.986879	78.283813	-1.612929	16.292887	-1.607579	16.062460	-17.836138	39.401531
55500000000	-21.959349	58.281368	-1.612859	-20.668812	-1.616999	-20.899729	-18.704422	14.672032
56000000000	-25.121347	38.213787	-1.656430	-57.732681	-1.670557	-57.896557	-21.093874	-14.519157
56500000000	-34.613323	9.301597	-1.703039	-94.864174	-1.723697	-95.000603	-26.127832	-52.785583
57000000000	-32.962898	148.141690	-1.812694	-131.551910	-1.821908	-131.740330	-30.155853	-134.828600
57500000000	-25.209248	135.964250	-1.794067	-168.718550	-1.794245	-168.837070	-27.013613	153.380250
58000000000	-22.726233	117.439320	-1.793517	154.028920	-1.793432	153.915970	-23.770603	116.532220
58500000000	-20.992226	98.715195	-1.830190	116.825040	-1.832420	116.640340	-21.829762	99.905197
59000000000	-18.113188	86.999405	-1.911690	79.281746	-1.920553	79.143684	-19.373335	92.969170
59500000000	-15.327654	75.149338	-2.065501	41.928886	-2.066796	41.802292	-16.443256	78.314499
60000000000	-12.858438	54.633575	-2.276218	4.926723	-2.291935	4.822222	-13.549761	54.506989
60500000000	-11.129966	32.037251	-2.497836	-31.738169	-2.494731	-31.775375	-11.603531	29.198208
61000000000	-10.230201	4.748892	-2.678225	-68.000351	-2.676133	-68.053482	-10.363359	1.294045
61500000000	-9.511195	-25.555031	-2.817728	-104.078020	-2.824262	-104.163090	-9.738596	-28.957790
62000000000	-9.285447	-54.972805	-2.885593	-140.030810	-2.880683	-140.167890	-9.526125	-58.766895
62500000000	-9.679140	-87.614845	-2.888621	-176.328090	-2.883579	-176.528490	-9.800259	-90.470139
63000000000	-9.928380	-121.864810	-2.865460	146.936510	-2.868384	146.768690	-10.467551	-125.888450
63500000000	-10.197299	-156.893020	-2.859556	109.955040	-2.857920	109.673670	-10.844063	-163.349880
64000000000	-10.189818	167.095760	-2.902518	72.743805	-2.908304	72.471069	-11.295076	156.832120
64500000000	-10.201036	134.557970	-2.968339	35.463379	-2.972665	35.350182	-10.958614	115.197810
65000000000	-10.802132	96.705467	-3.072277	-1.733145	-3.086252	-1.843556	-10.571536	77.621750
65500000000	-10.698098	57.802341	-3.195751	-39.036434	-3.199580	-39.068134	-10.418398	41.042858
66000000000	-11.060773	21.446367	-3.300805	-76.155121	-3.319920	-76.170876	-10.483336	2.702431
66500000000	-11.574199	-18.008814	-3.439902	-112.875560	-3.437138	-112.858190	-10.596831	-34.043652
67000000000	-12.188408	-56.420250	-3.459515	-150.030980	-3.471595	-150.052290	-10.896424	-71.596291
