#  HZ   S   RI   R     50.00 
! Rohde & Schwarz ZVA50 4Ports - Version 3.60 - 1145.1110k52 SN: 100151
! Date: 2024-12-13 12:34:43
! Measurements: S11 S21 S12 S22 
! 
 1.000000000000000E8    -9.755601175129414E-3  -1.227038912475109E-2   9.885079860687256E-1  -1.908464170992374E-2   9.858881831169128E-1  -2.230008691549301E-2  -9.019076824188232E-3  -9.097298607230187E-3  
 1.199000000000000E8    -1.062330603599548E-2  -8.355188183486462E-3   9.855850934982300E-1  -2.705046720802784E-2   9.841961264610291E-1  -2.299204282462597E-2  -9.941980242729187E-3  -7.615257054567337E-3  
 1.398000000000000E8    -1.098322868347168E-2  -8.805486373603344E-3   9.712011218070984E-1  -2.273439615964890E-2   9.827357530593872E-1  -2.364039421081543E-2  -1.364446897059679E-2  -6.196340546011925E-3  
 1.597000000000000E8    -1.194477919489145E-2  -9.003753773868084E-3   9.803159236907959E-1  -1.883519254624844E-2   9.811515212059021E-1  -2.357591502368450E-2  -1.308640651404858E-2  -8.863425813615322E-3  
 1.796000000000000E8    -1.378011330962181E-2  -6.375389173626900E-3   9.809856414794922E-1  -2.495947480201721E-2   9.808963537216187E-1  -2.674085646867752E-2  -1.415908988565207E-2  -6.369067355990410E-3  
 1.995000000000000E8    -1.484330091625452E-2  -6.897361949086189E-3   9.788138270378113E-1  -2.525459602475166E-2   9.792754650115967E-1  -2.868068218231201E-2  -1.462016068398953E-2  -6.213958375155926E-3  
 2.194000000000000E8    -1.582081802189350E-2  -6.446362473070622E-3   9.770745038986206E-1  -2.708277106285095E-2   9.784094691276550E-1  -2.934417501091957E-2  -1.630632206797600E-2  -5.108609795570374E-3  
 2.393000000000000E8    -1.624596305191517E-2  -3.993894439190626E-3   9.764252901077271E-1  -3.183199837803841E-2   9.770001173019409E-1  -3.095236420631409E-2  -1.620232872664928E-2  -4.351616837084293E-3  
 2.592000000000000E8    -1.703725755214691E-2  -4.147387575358152E-3   9.779674410820007E-1  -3.539640083909035E-2   9.768983721733093E-1  -3.248888254165649E-2  -1.616962254047394E-2  -3.807089757174254E-3  
 2.791000000000000E8    -1.766353286802769E-2  -3.570093074813485E-3   9.774134755134583E-1  -3.549179062247276E-2   9.765371084213257E-1  -3.324003890156746E-2  -1.740292832255364E-2  -3.478358499705792E-3  
 2.990000000000000E8    -1.778975874185562E-2  -2.426069695502520E-3   9.739578366279602E-1  -3.711735084652901E-2   9.764197468757629E-1  -3.509675338864327E-2  -1.704883947968483E-2  -2.824153983965516E-3  
 3.189000000000000E8    -1.832131668925285E-2  -1.931131118908525E-3   9.755173921585083E-1  -3.946789354085922E-2   9.753867983818054E-1  -3.678606450557709E-2  -1.795481517910957E-2  -2.647964516654611E-3  
 3.388000000000000E8    -1.833219081163406E-2  -1.248833257704973E-3   9.743846654891968E-1  -4.134394228458405E-2   9.756890535354614E-1  -3.880541026592255E-2  -1.805376261472702E-2  -1.013955217786133E-3  
 3.587000000000000E8    -1.900085248053074E-2  -1.229790650540963E-4   9.745711684226990E-1  -4.259879142045975E-2   9.747414588928223E-1  -3.964002802968025E-2  -1.855358481407166E-2  -1.052052830345929E-3  
 3.786000000000000E8    -1.881625689566135E-2  -8.702983614057303E-4   9.744466543197632E-1  -4.233286529779434E-2   9.742749333381653E-1  -4.147535189986229E-2  -1.856995932757855E-2  -3.867291379719973E-4  
 3.985000000000000E8    -1.876683905720711E-2   5.974515806883574E-5   9.765221476554871E-1  -4.200433939695358E-2   9.739096164703369E-1  -4.283791780471802E-2  -1.849168352782726E-2   2.928326430264860E-4  
 4.184000000000000E8    -1.888077519834042E-2   4.645153530873358E-4   9.740697145462036E-1  -4.352174326777458E-2   9.734859466552734E-1  -4.500963911414146E-2  -1.840972155332565E-2   7.358476868830621E-4  
 4.383000000000000E8    -1.898708008229733E-2   9.382055141031742E-4   9.732714891433716E-1  -4.592808336019516E-2   9.733578562736511E-1  -4.597842320799828E-2  -1.918212510645390E-2   1.033930340781808E-3  
 4.582000000000000E8    -1.959945261478424E-2   1.973474863916636E-3   9.738316535949707E-1  -4.963135719299316E-2   9.733422994613648E-1  -4.774105176329613E-2  -1.938600279390812E-2   1.206350745633245E-3  
 4.781000000000000E8    -1.948466710746288E-2   1.824267441406846E-3   9.713479280471802E-1  -4.929499328136444E-2   9.729528427124023E-1  -4.913987219333649E-2  -1.874093711376190E-2   2.070246497169137E-3  
 4.980000000000000E8    -1.925761066377163E-2   2.732342807576060E-3   9.704158306121826E-1  -5.093227699398994E-2   9.726871252059937E-1  -5.091847851872444E-2  -1.962909288704395E-2   2.837828826159239E-3  
 5.179000000000000E8    -1.976535283029079E-2   3.574136411771178E-3   9.729508757591248E-1  -5.314150452613831E-2   9.725053310394287E-1  -5.304499343037605E-2  -1.959573663771153E-2   3.249683650210500E-3  
 5.378000000000000E8    -1.956227608025074E-2   3.315391950309277E-3   9.709218740463257E-1  -5.287655442953110E-2   9.722909927368164E-1  -5.500458180904388E-2  -1.944531314074993E-2   3.533028531819582E-3  
 5.577000000000000E8    -1.970803551375866E-2   3.481284715235233E-3   9.717206358909607E-1  -5.571125075221062E-2   9.720907807350159E-1  -5.629316344857216E-2  -1.935297623276711E-2   4.051717463880777E-3  
 5.776000000000000E8    -1.952958106994629E-2   4.354673903435469E-3   9.711377024650574E-1  -5.757886171340942E-2   9.715185165405273E-1  -5.812380462884903E-2  -1.973568089306355E-2   4.430718719959259E-3  
 5.975000000000000E8    -1.957813836634159E-2   4.659566096961498E-3   9.707320332527161E-1  -5.669330060482025E-2   9.714834094047546E-1  -5.934741348028183E-2  -1.944766007363796E-2   4.743382334709168E-3  
 6.174000000000000E8    -1.997950859367847E-2   5.243230145424604E-3   9.713929295539856E-1  -5.960401892662048E-2   9.709113240242004E-1  -6.096174567937851E-2  -1.969414018094540E-2   4.934234078973532E-3  
 6.373000000000000E8    -2.018578536808491E-2   5.209468305110931E-3   9.696313738822937E-1  -6.353703141212463E-2   9.707307815551758E-1  -6.244434416294098E-2  -2.010203152894974E-2   5.936803296208382E-3  
 6.572000000000000E8    -2.034912630915642E-2   5.969811230897903E-3   9.704622030258179E-1  -6.448480486869812E-2   9.705872535705566E-1  -6.382411718368530E-2  -2.005609497427940E-2   6.372751668095589E-3  
 6.771000000000000E8    -2.040725760161877E-2   5.944749340415001E-3   9.709171056747437E-1  -6.428755819797516E-2   9.703054428100586E-1  -6.558072566986084E-2  -1.994889043271542E-2   6.483588367700577E-3  
 6.970000000000000E8    -2.066714875400066E-2   6.548912730067968E-3   9.688938856124878E-1  -6.673135608434677E-2   9.696626663208008E-1  -6.676549464464188E-2  -1.937850192189217E-2   7.542388048022986E-3  
 7.169000000000000E8    -1.986917480826378E-2   7.352289278060198E-3   9.694050550460815E-1  -6.722169369459152E-2   9.700395464897156E-1  -6.822079420089722E-2  -1.978798955678940E-2   7.550621405243874E-3  
 7.368000000000000E8    -2.065891399979591E-2   7.692756596952677E-3   9.683652520179749E-1  -7.015693932771683E-2   9.697424173355103E-1  -7.041124999523163E-2  -1.974228024482727E-2   8.095799945294857E-3  
 7.567000000000000E8    -2.039973065257072E-2   7.977683097124100E-3   9.710588455200195E-1  -7.200244069099426E-2   9.695398211479187E-1  -7.182153314352036E-2  -1.967698708176613E-2   8.281594142317772E-3  
 7.766000000000000E8    -2.003986202180386E-2   8.451818488538265E-3   9.686644077301025E-1  -7.443449646234512E-2   9.694904088973999E-1  -7.373668998479843E-2  -1.949921622872353E-2   9.038245305418968E-3  
 7.965000000000000E8    -2.041458524763584E-2   8.277074433863163E-3   9.704225659370422E-1  -7.538073509931564E-2   9.692419767379761E-1  -7.540718466043472E-2  -2.015295438468456E-2   9.163697250187397E-3  
 8.164000000000000E8    -2.015091292560101E-2   8.785082958638668E-3   9.701211452484131E-1  -7.727462798357010E-2   9.691737294197083E-1  -7.729101181030273E-2  -1.957548409700394E-2   9.314586408436298E-3  
 8.363000000000000E8    -1.951757445931435E-2   8.901895955204964E-3   9.690870046615601E-1  -7.816810160875320E-2   9.691044688224793E-1  -7.894884794950485E-2  -1.920318230986595E-2   9.763541631400585E-3  
 8.562000000000000E8    -1.983538456261158E-2   8.853207342326641E-3   9.699987769126892E-1  -8.075675368309021E-2   9.686564803123474E-1  -8.044923096895218E-2  -1.935011148452759E-2   1.006444636732340E-2  
 8.761000000000000E8    -2.006266638636589E-2   9.359389543533325E-3   9.688083529472351E-1  -8.339478075504303E-2   9.687346816062927E-1  -8.203736692667007E-2  -2.003662474453449E-2   1.041475497186184E-2  
 8.960000000000000E8    -1.942177489399910E-2   9.547763504087925E-3   9.684857130050659E-1  -8.377460390329361E-2   9.683009386062622E-1  -8.419883251190186E-2  -1.953194290399551E-2   1.063433289527893E-2  
 9.159000000000000E8    -1.984125748276711E-2   9.567971341311932E-3   9.683130383491516E-1  -8.585302531719208E-2   9.679716229438782E-1  -8.531233668327332E-2  -1.917889341711998E-2   1.137260627001524E-2  
 9.358000000000000E8    -1.993473246693611E-2   1.011904235929251E-2   9.670088887214661E-1  -8.635137975215912E-2   9.678106904029846E-1  -8.704131096601486E-2  -1.929474435746670E-2   1.137135270982981E-2  
 9.557000000000000E8    -2.014310099184513E-2   1.051228307187557E-2   9.673739671707153E-1  -8.829198032617569E-2   9.675521254539490E-1  -8.917158842086792E-2  -1.930445618927479E-2   1.153161097317934E-2  
 9.756000000000000E8    -1.966335251927376E-2   1.071722432971001E-2   9.674690365791321E-1  -9.164123982191086E-2   9.673687815666199E-1  -9.084932506084442E-2  -1.899807900190353E-2   1.187111530452967E-2  
 9.955000000000000E8    -2.014155499637127E-2   1.120497286319733E-2   9.685238599777222E-1  -9.406270086765289E-2   9.669278860092163E-1  -9.270451217889786E-2  -1.909922249615192E-2   1.261994615197182E-2  
 1.015400000000000E9    -1.986571960151196E-2   1.150222867727280E-2   9.671875238418579E-1  -9.321729093790054E-2   9.670493602752686E-1  -9.425088018178940E-2  -1.963946782052517E-2   1.241408754140139E-2  
 1.035300000000000E9    -2.007509581744671E-2   1.164430007338524E-2   9.661360979080200E-1  -9.564466029405594E-2   9.663542509078980E-1  -9.595858305692673E-2  -1.946736499667168E-2   1.265799719840288E-2  
 1.055200000000000E9    -1.997520402073860E-2   1.169741339981556E-2   9.670913815498352E-1  -9.676223248243332E-2   9.660876393318176E-1  -9.752774238586426E-2  -1.933367922902107E-2   1.325091812759638E-2  
 1.075100000000000E9    -1.999242417514324E-2   1.266088429838419E-2   9.652084112167358E-1  -1.003881022334099E-1   9.659643173217773E-1  -9.906648099422455E-2  -1.923736743628979E-2   1.407781057059765E-2  
 1.095000000000000E9    -2.033314295113087E-2   1.311621256172657E-2   9.647641181945801E-1  -1.003465279936791E-1   9.656026363372803E-1  -1.005901023745537E-1  -1.951959356665611E-2   1.424801256507635E-2  
 1.114900000000000E9    -2.019928395748138E-2   1.322940271347761E-2   9.660314321517944E-1  -1.028225645422936E-1   9.655289649963379E-1  -1.023328155279160E-1  -1.900885440409184E-2   1.461800094693899E-2  
 1.134800000000000E9    -1.969811692833901E-2   1.358981523662806E-2   9.640766382217407E-1  -1.043039634823799E-1   9.653022885322571E-1  -1.041113063693047E-1  -1.857774704694748E-2   1.494679041206837E-2  
 1.154700000000000E9    -1.996409706771374E-2   1.400853786617518E-2   9.655306339263916E-1  -1.064693182706833E-1   9.651927947998047E-1  -1.058684736490250E-1  -1.899613253772259E-2   1.531209424138069E-2  
 1.174600000000000E9    -1.964915171265602E-2   1.456103939563036E-2   9.657310247421265E-1  -1.071878373622894E-1   9.646273851394653E-1  -1.076025515794754E-1  -1.913148351013660E-2   1.513677835464478E-2  
 1.194500000000000E9    -1.927358284592629E-2   1.504186168313026E-2   9.638754129409790E-1  -1.094850152730942E-1   9.644087553024292E-1  -1.092936918139458E-1  -1.841249130666256E-2   1.550806034356356E-2  
 1.214400000000000E9    -1.946688815951347E-2   1.510499883443117E-2   9.645102024078369E-1  -1.112969964742661E-1   9.644257426261902E-1  -1.110827624797821E-1  -1.872163079679012E-2   1.594377867877483E-2  
 1.234300000000000E9    -1.962128467857838E-2   1.580102182924748E-2   9.641069769859314E-1  -1.134615764021874E-1   9.639483094215393E-1  -1.128311306238174E-1  -1.943090185523033E-2   1.600529626011848E-2  
 1.254200000000000E9    -1.921636424958706E-2   1.611712761223316E-2   9.640215039253235E-1  -1.132794022560120E-1   9.637759923934937E-1  -1.142208278179169E-1  -1.920526847243309E-2   1.610430702567101E-2  
 1.274100000000000E9    -1.906899176537991E-2   1.607820019125938E-2   9.637699723243713E-1  -1.152301877737045E-1   9.634287357330322E-1  -1.159506216645241E-1  -1.883649826049805E-2   1.700661145150662E-2  
 1.294000000000000E9    -1.886807195842266E-2   1.608743518590927E-2   9.634658098220825E-1  -1.177544742822647E-1   9.634842872619629E-1  -1.176384910941124E-1  -1.887109875679016E-2   1.761978305876255E-2  
 1.313900000000000E9    -1.880305632948875E-2   1.624876633286476E-2   9.634985327720642E-1  -1.208148896694183E-1   9.632530808448792E-1  -1.194491684436798E-1  -1.879795454442501E-2   1.755273342132568E-2  
 1.333800000000000E9    -1.871487684547901E-2   1.675672456622124E-2   9.628676176071167E-1  -1.221420466899872E-1   9.629833698272705E-1  -1.212661489844322E-1  -1.855856925249100E-2   1.755488291382790E-2  
 1.353700000000000E9    -1.903722062706947E-2   1.712402701377869E-2   9.637795090675354E-1  -1.235357746481895E-1   9.623904228210449E-1  -1.230739206075668E-1  -1.860401406884193E-2   1.843524724245071E-2  
 1.373600000000000E9    -1.979615353047848E-2   1.728007756173611E-2   9.606633186340332E-1  -1.240480616688728E-1   9.620496034622192E-1  -1.248244866728783E-1  -1.896837912499905E-2   1.839811541140080E-2  
 1.393500000000000E9    -1.970589160919190E-2   1.761611737310886E-2   9.616619348526001E-1  -1.256316900253296E-1   9.617430567741394E-1  -1.270902454853058E-1  -1.904278621077538E-2   1.825636252760887E-2  
 1.413400000000000E9    -1.929574273526669E-2   1.767110265791416E-2   9.603728055953980E-1  -1.286049634218216E-1   9.613067507743835E-1  -1.284888684749603E-1  -1.856276020407677E-2   1.886644028127194E-2  
 1.433300000000000E9    -1.930408738553524E-2   1.735540479421616E-2   9.606755971908569E-1  -1.299673765897751E-1   9.610160589218140E-1  -1.299877762794495E-1  -1.867299526929855E-2   1.956200227141380E-2  
 1.453200000000000E9    -1.980014331638813E-2   1.831142604351044E-2   9.612331390380859E-1  -1.302272677421570E-1   9.608261585235596E-1  -1.315974742174149E-1  -1.908430084586144E-2   1.962827146053314E-2  
 1.473100000000000E9    -1.931618154048920E-2   1.863477192819119E-2   9.599481225013733E-1  -1.331054568290710E-1   9.606195688247681E-1  -1.335285156965256E-1  -1.854084990918636E-2   1.950038783252239E-2  
 1.493000000000000E9    -1.949424855411053E-2   1.898364350199699E-2   9.586449265480042E-1  -1.348176002502441E-1   9.598497748374939E-1  -1.351560801267624E-1  -1.855513080954552E-2   2.003330737352371E-2  
 1.512900000000000E9    -2.003567293286324E-2   1.934154704213142E-2   9.605017900466919E-1  -1.365985721349716E-1   9.596682786941528E-1  -1.367569714784622E-1  -1.896227896213532E-2   2.050667628645897E-2  
 1.532800000000000E9    -1.953795924782753E-2   1.958378963172436E-2   9.595220685005188E-1  -1.388631314039230E-1   9.589209556579590E-1  -1.386389136314392E-1  -1.906948909163475E-2   2.035356871783733E-2  
 1.552700000000000E9    -1.994699053466320E-2   1.991888508200645E-2   9.585266113281250E-1  -1.395024359226227E-1   9.585409760475159E-1  -1.404055505990982E-1  -1.884223707020283E-2   2.062171325087547E-2  
 1.572600000000000E9    -1.994323730468750E-2   2.053888887166977E-2   9.588450193405151E-1  -1.435107588768005E-1   9.579454064369202E-1  -1.418641060590744E-1  -1.922199316322804E-2   2.154396474361420E-2  
 1.592500000000000E9    -2.048611640930176E-2   2.094651386141777E-2   9.568828940391541E-1  -1.437799036502838E-1   9.571013450622559E-1  -1.431375741958618E-1  -1.997472345829010E-2   2.179191634058952E-2  
 1.612400000000000E9    -2.000086382031441E-2   2.182437293231487E-2   9.572862982749939E-1  -1.443757414817810E-1   9.571593999862671E-1  -1.445592194795609E-1  -1.968758180737495E-2   2.216449938714504E-2  
 1.632300000000000E9    -1.967306993901730E-2   2.207724004983902E-2   9.571770429611206E-1  -1.459540724754334E-1   9.569730162620544E-1  -1.463502049446106E-1  -1.926308870315552E-2   2.278684265911579E-2  
 1.652200000000000E9    -1.997333765029907E-2   2.221104316413403E-2   9.554115533828735E-1  -1.485465317964554E-1   9.566957354545593E-1  -1.476515829563141E-1  -1.938701979815960E-2   2.346312068402767E-2  
 1.672100000000000E9    -2.013298682868481E-2   2.235259674489498E-2   9.546074867248535E-1  -1.495513319969177E-1   9.558121562004089E-1  -1.494234651327133E-1  -2.001038193702698E-2   2.330473065376282E-2  
 1.692000000000000E9    -1.976797915995121E-2   2.303976938128471E-2   9.561766386032105E-1  -1.518865376710892E-1   9.554027915000916E-1  -1.509366035461426E-1  -1.965709961950779E-2   2.387844771146774E-2  
 1.711900000000000E9    -1.948808319866657E-2   2.356943301856518E-2   9.548578262329102E-1  -1.523496657609940E-1   9.553673863410950E-1  -1.525687873363495E-1  -1.931603811681271E-2   2.497269399464130E-2  
 1.731800000000000E9    -2.022505737841129E-2   2.412015013396740E-2   9.545114040374756E-1  -1.526569575071335E-1   9.547867774963379E-1  -1.542803347110748E-1  -1.988767832517624E-2   2.567274123430252E-2  
 1.751700000000000E9    -1.966490037739277E-2   2.450566552579403E-2   9.543507695198059E-1  -1.559371054172516E-1   9.548270702362061E-1  -1.555741727352142E-1  -1.951574720442295E-2   2.595170587301254E-2  
 1.771600000000000E9    -1.869479753077030E-2   2.532103843986988E-2   9.544107913970947E-1  -1.575369685888290E-1   9.544505476951599E-1  -1.573608070611954E-1  -1.888000220060349E-2   2.635591290891171E-2  
 1.791500000000000E9    -1.941869780421257E-2   2.518928050994873E-2   9.555681943893433E-1  -1.592209637165070E-1   9.543574452400208E-1  -1.588890999555588E-1  -1.895512081682682E-2   2.713381871581078E-2  
 1.811400000000000E9    -1.942151039838791E-2   2.572275139391422E-2   9.554775357246399E-1  -1.598011702299118E-1   9.535377621650696E-1  -1.606301218271256E-1  -1.906890235841274E-2   2.753366157412529E-2  
 1.831300000000000E9    -1.924906112253666E-2   2.665397711098194E-2   9.550878405570984E-1  -1.604253798723221E-1   9.533883333206177E-1  -1.622469276189804E-1  -1.858465373516083E-2   2.750330604612827E-2  
 1.851200000000000E9    -1.880327984690666E-2   2.697367221117020E-2   9.536440372467041E-1  -1.630187034606934E-1   9.536628127098084E-1  -1.644138842821121E-1  -1.794346421957016E-2   2.821954339742661E-2  
 1.871100000000000E9    -1.866303570568562E-2   2.729726023972035E-2   9.546698927879334E-1  -1.644764840602875E-1   9.529936909675598E-1  -1.659320145845413E-1  -1.822434365749359E-2   2.863313443958759E-2  
 1.891000000000000E9    -1.855420693755150E-2   2.765340171754360E-2   9.534144401550293E-1  -1.663081049919128E-1   9.529416561126709E-1  -1.670895814895630E-1  -1.832438446581364E-2   2.876804582774639E-2  
 1.910900000000000E9    -1.807471923530102E-2   2.790865488350391E-2   9.534994363784790E-1  -1.687568426132202E-1   9.528315663337708E-1  -1.686617732048035E-1  -1.751250773668289E-2   2.885100431740284E-2  
 1.930800000000000E9    -1.844879053533077E-2   2.738715149462223E-2   9.524260163307190E-1  -1.700789481401444E-1   9.522882103919983E-1  -1.704122424125671E-1  -1.751345396041870E-2   2.928434498608112E-2  
 1.950700000000000E9    -1.861972734332085E-2   2.859306707978249E-2   9.515265822410584E-1  -1.726878732442856E-1   9.514747262001038E-1  -1.720315963029862E-1  -1.816715300083160E-2   2.949419803917408E-2  
