#  HZ   S   DB   R     50.00 
! Rohde & Schwarz Vector Network Analyzer 
! Rohde-Schwarz,ZNA67-4Port,1332450064101810,2.73
! Created: UTC 3/17/2026, 12:03:34 PM
! freq[Hz]                db:S11                  ang:S11                 db:S12                  ang:S12                 db:S13                  ang:S13
!                         db:S21                  ang:S21                 db:S22                  ang:S22                 db:S23                  ang:S23
!                         db:S31                  ang:S31                 db:S32                  ang:S32                 db:S33                  ang:S33
! 
 1.000000000000000E9     5.047669253110735E-1   -1.725226700462220E2    -8.882988301227797E1    -5.082117428616380E1    -7.691589016563586E1    -7.902131236428031E1
                        -8.815014978508967E1    -4.230894146354937E1    -1.414459033057406       3.092782183943275E1    -8.998004535337100E1    -9.377854867355516E1
                        -7.584518460706502E1    -8.811912672220336E1    -8.942256685761237E1    -1.035739153379671E2     1.721995094592448      -1.659028132989044E2

 1.090909090909091E9     1.081616661637055E-1   -1.515458441874021E2    -8.488426344751673E1    -3.907233968117383E1    -7.666508549916220E1    -8.485721100450380E1
                        -8.830583353450444E1    -4.600928054367255E1    -3.196721424180738E-1    6.911186127668788E1    -9.040682443442968E1    -9.469905182560096E1
                        -7.564762247987885E1    -9.026948651553208E1    -9.108998212142139E1    -9.595991087211696E1     1.861915445218527      -5.474335049490021E1

 1.181818181818182E9    -2.071534475982178      -1.305723264106329E2    -8.870016961679690E1    -6.091516626124875E1    -7.476561718809245E1    -9.132690430782964E1
                        -8.899715051203142E1    -6.592057643277865E1    -1.373277764780294       1.131299545027348E2    -8.996148568813062E1    -9.485955947648611E1
                        -7.422179547408913E1    -9.053560892795586E1    -8.903379827479708E1    -9.012732750590145E1     1.811519503555111       6.229511123269307E1

 1.272727272727273E9    -2.705386856467213      -1.163403965241943E2    -8.968012726217695E1    -9.458962533883032E1    -7.436360183441209E1    -9.365314709647078E1
                        -8.771888596643480E1    -9.931648819119785E1    -2.862925522023998       1.515746013475340E2    -8.712842477826420E1    -9.849569787845297E1
                        -7.564783247429244E1    -8.160200828345467E1    -8.954171105586569E1    -8.718993473422073E1     1.811762697144666       1.749708295435815E2

 1.363636363636364E9    -7.046380388461211E-1   -1.082205640614083E2    -8.818556728915539E1    -1.351371355570904E2    -7.356682735302252E1    -9.429334640401292E1
                        -8.613358445473264E1    -1.214888635090373E2    -2.501681507371552       1.784042190433217E2    -8.756594372991475E1    -1.019259038790656E2
                        -7.314239276386046E1    -9.378168032293767E1    -8.806917009054214E1    -1.026589453010345E2     2.114766875905333      -7.378736437247554E1

 1.454545454545455E9     6.041166895790530E-1   -9.662617590629434E1    -8.498102571684780E1    -1.245490705891283E2    -7.296062824817390E1    -9.259236275501330E1
                        -8.373902256909605E1    -1.216305546445706E2    -4.596473151849366E-1   -1.550457881434715E2    -8.831541723242961E1    -9.702307901694684E1
                        -7.199579321147962E1    -9.340885104228262E1    -8.719591359536273E1    -9.463170244094091E1     1.821065429335098       4.104134911398892E1

 1.545454545454545E9    -1.127143626627154E-1   -7.320921729615237E1    -8.097385743538881E1    -1.204699827055918E2    -7.152555043078191E1    -9.237643808522043E1
                        -8.139706367469968E1    -1.194803295681915E2    -4.057338885218043E-1   -1.216788076211615E2    -8.869060800503118E1    -1.043978682316515E2
                        -7.293905503861249E1    -9.120791869290639E1    -8.882798578859035E1    -1.039378307279037E2     2.066779354597497       1.552791428714552E2

 1.636363636363636E9    -1.374721403605916      -4.695566002715987E1    -7.767636486361057E1    -1.101168378512271E2    -7.046260160622185E1    -9.203526203689670E1
                        -7.807584261413801E1    -1.145127574986011E2    -1.236359511135885      -7.852404497294376E1    -8.775514712941876E1    -1.102780231540388E2
                        -7.158992436329403E1    -1.019076094415882E2    -8.723630826604213E1    -1.043494478996653E2     2.274715120132801      -9.126086780619677E1

 1.727272727272727E9    -1.673940754446689      -3.919109764262068E1    -7.517689468725249E1    -1.069995593287976E2    -7.011716383741654E1    -9.650152602663773E1
                        -7.519428893545982E1    -1.060146132505073E2    -1.965312109233248      -3.829994016054029E1    -8.560501202616676E1    -1.067276136159412E2
                        -7.059557335959431E1    -9.516467043398485E1    -8.597114229734072E1    -1.043867163867488E2     2.549242988004509       2.247570337717050E1

 1.818181818181818E9     6.452260541671312E-2   -3.776511883645025E1    -7.346088918446162E1    -1.072230712114663E2    -6.996126934596380E1    -9.565188485567040E1
                        -7.454105787859773E1    -1.093938931974346E2    -1.746501685316467      -1.153597470358417E1    -8.449442275197198E1    -9.424183945959044E1
                        -7.160357766368521E1    -1.069372944525682E2    -8.577209905427041E1    -1.007687374795569E2     2.308353035814784       1.356082657943055E2

 1.909090909090909E9     7.176171992009670E-1   -1.911065416412402E1    -7.266366899187999E1    -1.084111065171589E2    -6.869232791149389E1    -1.026165634221888E2
                        -7.326843612161036E1    -1.052973199782801E2    -8.622367654296763E-1    1.184511611979887E1    -8.480581352351406E1    -1.164035963853175E2
                        -6.796960096139443E1    -1.008665524751351E2    -8.444786697195886E1    -1.245567138449197E2     2.422260343500293      -1.141188878157691E2

 2.000000000000000E9    -2.559759162828032E-1    8.304941305371415      -7.433467139080312E1    -1.040014913569834E2    -6.829290655081905E1    -1.035508337889693E2
                        -7.471696369503736E1    -1.080140227611521E2    -4.784406224537571E-1    4.913670147757426E1    -8.580290503873128E1    -8.981926069311467E1
                        -6.852923524882765E1    -1.022879904213169E2    -8.485666069083292E1    -9.417787360066495E1     2.626018687048538       1.371579903287575

 2.090909090909091E9    -1.069404098527966       2.973408994875759E1    -7.558607774447437E1    -8.691277921554887E1    -6.834913570983049E1    -1.073753624957918E2
                        -7.563382758214470E1    -9.008041813547808E1    -8.612702442114566E-1    9.452765477961474E1    -8.161957619109774E1    -9.441061906167566E1
                        -6.726752419808862E1    -1.010566637498853E2    -8.148857842560875E1    -8.087973466996259E1     2.565527674234230       1.160902030501746E2

 2.181818181818182E9    -6.463596154521973E-1    3.185023077128196E1    -7.355751770858711E1    -7.535058696367766E1    -6.771990052718169E1    -1.128295085242615E2
                        -7.584549111036144E1    -8.576941815863067E1    -1.553315294816261       1.341442706924121E2    -7.989146454111035E1    -1.285096263635986E2
                        -6.495409697244321E1    -1.106941741644966E2    -7.818451120730342E1    -1.040778201232925E2     2.686258970385622      -1.320391647890679E2

 2.272727272727273E9     3.321991370368579E-1    3.757443172877131E1    -7.474427767281975E1    -8.025114979677495E1    -6.775597847190818E1    -1.197823053643812E2
                        -7.474111615594481E1    -9.004107528388407E1    -1.532673392158921       1.571948526478075E2    -8.026830733343408E1    -1.281982811185996E2
                        -6.731197648757542E1    -1.159576523521170E2    -8.089749734419441E1    -1.280472729770629E2     2.857530612133812      -1.728897067312082E1

 2.363636363636364E9     4.520134526495759E-1    6.021050822338605E1    -7.805744455342298E1    -8.863920923552364E1    -6.809032841439534E1    -1.118826478816290E2
                        -7.542665683499570E1    -1.039594932275426E2    -6.766413928143071E-1   -1.751136047329191E2    -7.988607692728141E1    -1.182703630851840E2
                        -6.731152723707487E1    -1.131524496505172E2    -8.008552618429513E1    -1.178895556838305E2     2.795045218171222       9.890004335022851E1

 2.454545454545455E9     1.877097387005693E-1    8.805039165138366E1    -8.271531206912158E1    -1.328213827858793E2    -6.731286060984033E1    -1.128066948021144E2
                        -8.551546439794717E1    -1.264964913021633E2    -3.599008234695651E-2   -1.356978230332439E2    -8.259117690936890E1    -1.251016728839256E2
                        -6.933191016522906E1    -1.127356142781298E2    -8.196840459275862E1    -1.258361669366824E2     3.122674247927322      -1.490217855900790E2

 2.545454545454545E9    -7.238878524841443E-1    1.021838282847092E2    -9.802211594134175E1    -1.959263336754498      -6.744222820357210E1    -1.273615201278485E2
                        -1.073859216437378E2    -1.705264792988425E2    -3.068919264115806E-1   -9.231833257450891E1    -8.169940547459937E1    -1.332954060600157E2
                        -6.734478727227149E1    -1.180835313884118E2    -8.077593396191553E1    -1.192969383602672E2     2.919067893860901      -3.779850335263311E1

 2.636363636363636E9    -2.771309395497610E-1    9.996234048578869E1    -8.816991923251697E1    -1.691122427171923E2    -6.732313380208385E1    -1.252848784606513E2
                        -8.426840929555118E1    -1.745186163013631E2    -1.465106865453316      -6.134414927116433E1    -7.861557459967899E1    -1.313045046175364E2
                        -6.614630769101736E1    -1.211966650175137E2    -7.722073621729878E1    -1.330643779998864E2     2.880528320607644       8.028276762635957E1

 2.727272727272727E9     7.718013093359138E-1    1.163332129362680E2    -8.388279805820856E1     1.610927515786922E2    -6.716973845130862E1    -1.292858251084675E2
                        -8.479829671704428E1     1.642925509737624E2    -1.649759919494065      -3.373913617212980E1    -7.823382761574268E1    -1.361085069784858E2
                        -6.797745264309702E1    -1.222736142377533E2    -7.935606510074687E1    -1.379893299207977E2     3.084664850927787      -1.694786753475259E2

 2.818181818181818E9     5.887620216322619E-1    1.460989241121795E2    -8.579747799975081E1    -1.089766667318607E2    -6.636553348650746E1    -1.232232440276575E2
                        -8.750065458892168E1    -1.292545800697358E2    -1.145387169236469      -3.005419046018673      -7.665532036307394E1    -1.430239497310212E2
                        -6.660659080494892E1    -1.375310414690158E2    -7.668679568251065E1    -1.493414278336701E2     2.879970835466439      -5.861237056149894E1

 2.909090909090909E9    -3.741683765656433E-1    1.682411271301075E2    -7.846988749802765E1    -1.047091966246868E2    -6.641729376214663E1    -1.259187770319781E2
                        -7.874799791728071E1    -1.102436000631784E2    -9.502369043810012E-1    3.937177522284553E1    -7.656942853476183E1    -1.753684160969607E2
                        -6.749584789254887E1    -1.229534843898476E2    -7.734075941992285E1    -1.704640059263999E2     3.107856668919204       6.207865396644290E1

 3.000000000000000E9    -3.651092396798987E-1    1.666726554138374E2    -7.369629325610403E1    -1.319352700408345E2    -6.926949537610844E1    -1.239784374100092E2
                        -7.334684204401610E1    -1.303688854538846E2    -9.390567866388542E-1    8.048809947995238E1    -7.950433396753469E1    -1.745502888875155E2
                        -6.923576779665379E1    -1.332709423013382E2    -7.841643927632151E1     1.756837132371526E2     2.911239018564868       1.730812436592491E2

 3.090909090909091E9     2.057765519552269E-1    1.777830070720672E2    -7.095793034924677E1    -1.323411597883282E2    -6.715867403415301E1    -1.300530446753520E2
                        -7.164721078813680E1    -1.313838881988266E2    -1.103486481281270       1.148792524979367E2    -8.938689428660773E1     9.060158773653598E1
                        -6.726699384538182E1    -1.303203575803770E2    -8.770409950595960E1     8.974836802043062E1     3.104325774444710      -7.684788118761870E1

 3.181818181818182E9     4.040835938860914E-1   -1.591329781992193E2    -7.235076971519854E1    -1.371125001789990E2    -6.858778111965894E1    -1.298181963602182E2
                        -7.208140473080437E1    -1.423618112162911E2    -1.282755476423092       1.403345833443995E2    -8.957698687514558E1    -9.057826088249982E1
                        -6.850118941170325E1    -1.281126300127617E2    -9.236587228938973E1    -8.031522640879381E1     3.174203366886776       3.880581457598507E1

 3.272727272727273E9     4.318007689995404E-1   -1.378885509891247E2    -7.157010769191777E1    -1.291464852993412E2    -6.962567100166731E1    -1.229556228471959E2
                        -7.226906070856452E1    -1.369461336852625E2    -7.452528522412456E-1    1.704894953072285E2    -8.308319767738203E1    -1.191000419793400E2
                        -7.093310413535119E1    -1.327208096791825E2    -8.484550541733014E1    -1.139035905840068E2     3.069461292459667       1.529860959490669E2

 3.363636363636364E9    -2.009089898956414E-1   -1.252363529031939E2    -7.096849203504904E1    -1.218862299250430E2    -6.850089743629286E1    -1.397512179448882E2
                        -7.123674389477871E1    -1.205674493624449E2    -6.576386499795218E-1   -1.511100451848358E2    -7.819135847715285E1    -1.336012974083051E2
                        -6.795691007821179E1    -1.291031396293799E2    -7.769312415877073E1    -1.315471704318325E2     3.239709310386450      -9.731674814446103E1

 3.454545454545455E9    -8.513022737228924E-1   -1.206640698059696E2    -7.353131187068954E1    -1.295912905309316E2    -7.099549950765967E1    -1.390335570986147E2
                        -7.400374536433918E1    -1.249403434817567E2    -9.051012097620392E-1   -1.112829053360644E2    -7.876541066363232E1    -1.750082246244644E2
                        -7.046148743074853E1    -1.297748937004623E2    -7.821020584197358E1    -1.725282014151455E2     3.522352920536475       1.884809209698520E1

 3.545454545454545E9    -5.456933807022801E-1   -1.105204888877525E2    -7.522804119155199E1    -1.134724960369307E2    -6.975898747559772E1    -1.138772710527528E2
                        -7.652255701080732E1    -1.196514594563042E2    -1.288244721027223      -8.036737807647209E1    -8.154330321263959E1     1.799970016951572E2
                        -6.978901015725700E1    -1.137927267939306E2    -8.178148207255141E1    -1.767461344782349E2     3.335715777317404       1.324840940595641E2

 3.636363636363636E9     2.800683557173864E-1   -8.181597590355615E1    -7.701775524010949E1    -1.379776686331232E2    -6.885845937798997E1    -1.240474128096810E2
                        -7.683332267510406E1    -1.211940049695795E2    -1.473392143237987      -5.482625584141928E1    -8.560392999194383E1     1.729558217044049E2
                        -6.786377984730193E1    -1.251680878954330E2    -8.403846254025348E1     1.664069698572985E2     3.362319348716079      -1.180697091241223E2

 3.727272727272727E9     3.146586420677548E-2   -6.242433357996957E1    -7.570151836153963E1    -1.561032139627730E2    -6.837733032451708E1    -1.193989488792215E2
                        -7.551361727286185E1    -1.606887895466742E2    -1.223555395771425      -1.437930289264770E1    -8.571033884787241E1    -1.206740859455360E2
                        -6.832380516065371E1    -1.220824706430226E2    -8.751245768102024E1    -1.157796629145544E2     3.792993634098207      -2.426516132229453

 3.818181818181818E9    -1.013565067032411      -5.205054377024351E1    -7.605445003327239E1     1.605189666221674E2    -6.671244669715114E1    -1.202889156993610E2
                        -7.682305115681517E1     1.675281186503929E2    -1.209078835984489       2.347737576142504E1    -8.295918114951961E1    -1.555682585422752E2
                        -6.655876085638715E1    -1.281109414132872E2    -8.359089084858141E1    -1.570669904733850E2     3.448348667497994       1.148343514501289E2

 3.909090909090909E9    -1.243982700594101      -4.070850799204039E1    -8.474590214959782E1     1.238864084065443E2    -6.738593095430249E1    -1.246133280378755E2
                        -8.294246234952249E1     1.335947620758514E2    -1.772763128629233       6.071490618645663E1    -8.463224584799578E1    -1.680394420646062E2
                        -6.683670651361597E1    -1.209719391095607E2    -8.591958374158455E1    -1.595975874314159E2     3.523336947866979      -1.343878627761021E2

 4.000000000000000E9    -7.296851332192477E-1   -2.344326188861659E1    -7.861678060665653E1     1.722319250935414E2    -6.677621241494934E1    -1.363297654533200E2
                        -7.837507044109313E1     1.669772592821421E2    -1.434947195023386       8.999749524567335E1    -8.176901553203396E1    -1.428529163669707E2
                        -6.756285750316337E1    -1.347266206879848E2    -8.292519127362954E1    -1.327328700974957E2     3.844867601742442      -2.456617348475937E1

 4.090909090909091E9     9.410442772568396E-2   -4.980736372953146      -7.588704659123012E1     1.770012902112015E2    -6.894843993544220E1    -1.334387641464030E2
                        -7.597617325907243E1     1.735915268671069E2    -1.596976756037037       1.247343433055804E2    -8.554181508790742E1    -1.342838373318687E2
                        -6.917735707767514E1    -1.326839949538847E2    -8.573790299158355E1    -1.344296190436161E2     3.711468054555819       9.623202006049887E1

 4.181818181818182E9     5.876382567951821E-2    1.562280410812208E1    -7.332364290952182E1     1.719525138276908E2    -6.887548593188259E1    -1.326031796400064E2
                        -7.478765462303176E1     1.712954517726297E2    -1.847273969111917       1.590389017504062E2    -8.742179493235449E1    -1.311607263450434E2
                        -6.905928395340312E1    -1.173634105277002E2    -8.575113637192899E1    -1.077144158237909E2     3.527969575740103      -1.541502408489634E2

 4.272727272727273E9    -1.698402528366015       3.336518886442022E1    -7.305352939146096E1     1.783050252652833E2    -6.876955736657578E1    -1.350198514185101E2
                        -7.413101342279505E1     1.760899479400299E2    -1.334809173734721      -1.639641425880498E2    -8.052054539017028E1    -1.407360415884137E2
                        -6.942181541020106E1    -1.299695198216283E2    -8.049096830831948E1    -1.325217440354443E2     3.815213866263561      -4.524457569343716E1

 4.363636363636364E9    -2.599059499707383       4.686018650131909E1    -7.219027579590032E1     1.766211885671913E2    -6.982740689046696E1    -1.327328582544754E2
                        -7.423541650866534E1     1.692097105166752E2    -1.133663941080132      -1.375367315063801E2    -7.781007187866119E1    -1.530446390924589E2
                        -6.912353971915667E1    -1.336452053495680E2    -7.607789122254326E1    -1.444504281466439E2     3.462506130849678       7.038458297216977E1

 4.454545454545454E9    -9.011177029629864E-1    5.977280421789090E1    -7.327462749471387E1    -1.642976350159680E2    -6.926543242099656E1    -1.200031543522244E2
                        -7.408803412298597E1    -1.728100746787896E2    -1.460142646555174      -9.612399410758867E1    -7.857105797024897E1    -1.633333173100080E2
                        -6.953954731309776E1    -1.283948698252317E2    -7.828416909587810E1    -1.680383456799711E2     3.704791377653573      -1.738884448651980E2

