#  HZ   S   RI   R     50.00 
! Rohde & Schwarz Vector Network Analyzer 
! Rohde-Schwarz,ZNA67-4Port,1332450064101810,2.73
! Created: UTC 3/17/2026, 12:04:17 PM
! freq[Hz]                re:S11                  im:S11                  re:S21                  im:S21                  re:S12                  im:S12                  re:S22                  im:S22
 1.000000000000000E9    -1.050821599056393      -1.379054239487695E-1    2.654927886123853E-5   -2.555817016747809E-5    1.944653681602234E-5   -3.239064507965861E-5    7.288992976285120E-1    4.367303602673727E-1
 1.047500000000000E9    -7.096953866366360E-1   -7.121541784664669E-2    2.043492669740571E-5   -3.697906423361499E-5    3.432994339544513E-5   -3.225793118838078E-5    4.343316006118925E-1    4.863118605357363E-1
 1.095000000000000E9    -9.532496049425454E-1    1.974375461621952E-2    3.073547114988253E-5   -4.757543331038952E-5    3.211265756088024E-5   -5.501695119658052E-5    7.392696997267273E-1    5.919354013180181E-1
 1.142500000000000E9    -9.319064192118458E-1    2.921344801469654E-1    3.441437379011043E-5   -4.326177540689336E-5    4.375625615697706E-5   -3.839498553251515E-5    5.589667372312246E-1    4.983244539957819E-1
 1.190000000000000E9    -6.945689062886264E-1    1.649251714928025E-1    2.910804423320522E-5   -5.632704176575872E-5    4.662184471881968E-5   -5.233492910559390E-5    4.426584842471639E-1    6.127733316528273E-1
 1.237500000000000E9    -9.007686944822791E-1    5.061460648881840E-1    3.958338001802193E-5   -5.618858114876231E-5    2.629299428780819E-5   -5.487195889045910E-5    7.333577559166570E-1    6.223684382019481E-1
 1.285000000000000E9    -6.745130382640804E-1    5.245284889103957E-1    3.544010927101022E-5   -5.957670676058439E-5    4.536788506755347E-5   -5.086263669918920E-5    4.210176566018558E-1    5.510926330105904E-1
 1.332500000000000E9    -6.602495489265029E-1    4.744074226340783E-1    2.934637176602936E-5   -6.588540074757402E-5    4.755082719903928E-5   -5.458014088297251E-5    5.053609986211037E-1    6.854406506537418E-1
 1.380000000000000E9    -5.572512129690921E-1    8.947387489877818E-1    4.445851019995097E-5   -6.833912371516703E-5    6.279732141475376E-5   -7.096290945333129E-5    6.317670112406025E-1    6.595795339564836E-1
 1.427500000000000E9    -4.278401627684484E-1    6.529316969138053E-1    3.258741377032594E-5   -7.541001948604130E-5    4.224928423666719E-5   -8.286097100951370E-5    3.281105022140473E-1    6.309512644945670E-1
 1.475000000000000E9    -4.189947235658592E-1    8.271301470331329E-1    3.875841746178848E-5   -9.338059488895085E-5    4.752068976224039E-5   -8.755829280267606E-5    5.582919780443977E-1    7.378637026914949E-1
 1.522500000000000E9    -1.021497435980447E-1    1.017411775057445       5.408917212762634E-5   -9.565370303588806E-5    5.206712077294912E-5   -8.723319716283408E-5    4.932503123086071E-1    6.748641685018922E-1
 1.570000000000000E9    -2.429272805508198E-1    7.355517895887828E-1    4.339529120637247E-5   -9.694892905455133E-5    4.282040314929754E-5   -9.458338408831005E-5    2.855156380221882E-1    7.306045584502513E-1
 1.617500000000000E9     5.924102213648968E-2    1.015238182325779       4.428247805040899E-5   -1.145555163462662E-4    4.158758512034208E-5   -1.144113495652191E-4    5.587428631717215E-1    7.671471676773618E-1
 1.665000000000000E9     2.561557286004814E-1    8.953897792999356E-1    5.636504948885555E-5   -1.110698958124297E-4    5.467820390833831E-5   -1.139262595503474E-4    3.091051245744986E-1    7.189446086791558E-1
 1.712500000000000E9     1.092421002559545E-1    8.315210623149100E-1    3.053012529250863E-5   -1.297051802195869E-4    4.752284972200737E-5   -1.400741552713435E-4    3.015190285921638E-1    8.142708857333749E-1
 1.760000000000000E9     5.906441348237955E-1    8.985340095220663E-1    1.020779475022205E-5   -1.647554482830236E-4    4.497465864031927E-5   -1.554581791452898E-4    4.996730448506491E-1    7.719148419126489E-1
 1.807500000000000E9     5.055857185387477E-1    7.076166698332229E-1    2.827729126155562E-5   -1.576325566074331E-4    2.925075289882388E-5   -1.529613841701223E-4    1.729175120978153E-1    7.793245496713739E-1
 1.855000000000000E9     5.277166251525733E-1    7.574145384115504E-1    1.791529479336794E-5   -1.604991707543584E-4    3.421936999955888E-5   -1.760991796453861E-4    3.295184776207065E-1    8.603065062358429E-1
 1.902500000000000E9     9.493631153572841E-1    5.247775582150420E-1    1.731974732388953E-5   -2.002225062361577E-4    1.710515968509385E-5   -1.967690814437812E-4    3.411575440617152E-1    7.924303632740503E-1
 1.950000000000000E9     6.928051407097707E-1    4.869082535648334E-1    3.499119086995093E-6   -2.009504927087818E-4    1.932901032211197E-5   -2.126823233096954E-4    1.077541504783615E-1    8.299342899287029E-1
 1.997500000000000E9     8.926726485480803E-1    4.287533690790263E-1   -3.853742271078552E-5   -1.702515181999642E-4   -2.401660381912182E-5   -1.716126363188377E-4    3.700539779993963E-1    8.706661284660989E-1
 2.045000000000000E9     1.042254992272859       4.830105316170737E-2   -2.909566027622310E-5   -1.914552402891420E-4   -2.692950081960373E-5   -1.821749091742501E-4    1.858246070642905E-1    7.951184367302884E-1
 2.092500000000000E9     8.416466508098378E-1    2.547459306949886E-1   -1.410488431774001E-5   -1.760673680984964E-4   -2.515593709984553E-6   -1.884557464956866E-4    1.017921047026848E-1    8.921198055401286E-1
 2.140000000000000E9     1.045710685871289      -1.278188614068350E-1   -2.152665218060689E-5   -1.772073462897905E-4   -3.126483892588128E-5   -2.135405018684188E-4    2.985390756910001E-1    8.776803421102255E-1
 2.187500000000000E9     9.376705109139046E-1   -2.896205690883574E-1   -4.581996241928704E-5   -2.275838463082076E-4   -1.239466035028523E-5   -2.702110085296914E-4    1.929626346480202E-2    8.198310765702311E-1
 2.235000000000000E9     9.382785053313383E-1   -1.614409913192813E-1   -6.823332038165568E-5   -2.105225670334457E-4   -7.137594282504479E-5   -2.476370752508298E-4    7.585468306967068E-2    9.339462331703843E-1
 2.282500000000000E9     8.668889261197890E-1   -6.171878517171181E-1   -1.046590217685295E-4   -2.536948238953555E-4   -1.058594727335599E-4   -2.736043683066179E-4    2.011859970877759E-1    8.656902761061323E-1
 2.330000000000000E9     7.419238615859887E-1   -5.598160110152887E-1   -1.443980405764595E-4   -2.631366588680871E-4   -1.328433885951807E-4   -2.921775539867309E-4   -1.096575806377579E-1    8.450700414989915E-1
 2.377500000000000E9     8.184068857978493E-1   -6.151437249247154E-1   -1.412783470994432E-4   -1.930927843302744E-4   -1.444795401998424E-4   -1.908991226734397E-4    7.037477488671980E-2    9.446060569170548E-1
 2.425000000000000E9     4.605024652026687E-1   -9.537965850388931E-1   -1.863059793409661E-4   -1.907080597810623E-4   -1.880622666920698E-4   -2.500708720874925E-4    2.219741488780765E-2    8.501221661297493E-1
 2.472500000000000E9     5.642943888194312E-1   -7.340636561996434E-1   -1.756027290711098E-4   -1.765828170278459E-4   -2.008469531200485E-4   -1.758597197215648E-4   -1.510570259791906E-1    8.684013109907821E-1
 2.520000000000000E9     4.750864582254730E-1   -9.630587439718072E-1   -1.343360373111128E-4   -1.192837858187183E-4   -1.673366709926442E-4   -1.306716597060774E-4    4.965548653291827E-2    9.358425340884087E-1
 2.567500000000000E9     6.778272224888431E-2   -1.012097523684303      -1.158474573968588E-4   -1.356407323249650E-4   -1.449504035644793E-4   -1.851790660634158E-4   -1.342670817149486E-1    8.217245631812777E-1
 2.615000000000000E9     2.761875417663864E-1   -8.914990634581178E-1   -1.376020882805032E-4   -1.426872444162372E-4   -1.705552594074079E-4   -1.779728494550895E-4   -1.648442970787798E-1    8.929297473819274E-1
 2.662500000000000E9    -7.318333249951875E-2   -1.103488014143203      -1.879267107107686E-4   -1.334290912198268E-4   -1.940561437281591E-4   -1.303642231704524E-4   -3.772936616098825E-2    9.050472553967922E-1
 2.710000000000000E9    -3.586704191067882E-1   -8.951352822132405E-1   -2.014300642404923E-4   -9.288489143589214E-5   -2.208951243923757E-4   -9.364307103645223E-5   -2.562020297453106E-1    8.178204175205889E-1
 2.757500000000000E9    -1.170833949384530E-1   -9.889936259409288E-1   -1.907295840852815E-4   -4.384969557506504E-5   -1.949643516653679E-4   -6.145171224419775E-5   -2.129805679907766E-1    8.930297711375190E-1
 2.805000000000000E9    -5.910350048872139E-1   -9.198952068874131E-1   -7.127125251889738E-5   -5.067606194444107E-5   -7.959588580677633E-5   -5.802669903750684E-5   -1.860592893889066E-1    8.512359671582479E-1
 2.852500000000000E9    -6.053646160313256E-1   -7.169561667757339E-1   -3.619842205595414E-5   -1.085829175947986E-4   -4.240437005881238E-5   -1.111180950712389E-4   -3.588137822740798E-1    8.083585614015698E-1
 2.900000000000000E9    -5.583889789823493E-1   -8.547460400085520E-1   -4.596234884775963E-5   -1.471276776436527E-4   -2.835440940429449E-5   -1.402712930837857E-4   -2.385290675229894E-1    8.661132415383724E-1
 2.947500000000000E9    -8.902508771521404E-1   -5.589998149124132E-1   -6.195336513558204E-5   -1.804980182126724E-4   -6.651168368762052E-5   -1.906655460103834E-4   -3.148752962221879E-1    8.087116626886341E-1
 2.995000000000000E9    -8.256167602026285E-1   -4.470788988545730E-1   -1.262228512419801E-4   -1.981583219438417E-4   -1.139901737332051E-4   -1.898271416824435E-4   -4.130500218089464E-1    8.039930370551247E-1
 3.042500000000000E9    -9.250349495378112E-1   -4.877763576986595E-1   -1.583413494502180E-4   -2.015309467465059E-4   -1.702672603780049E-4   -1.843042373822273E-4   -2.721116100012141E-1    8.288989709620354E-1
 3.090000000000000E9    -1.015325670423949      -8.443015601692617E-2   -1.659098208934838E-4   -1.969225515472059E-4   -1.793755907681017E-4   -2.071575302875732E-4   -4.686728069310711E-1    7.493911273382277E-1
 3.137500000000000E9    -9.553390839911325E-1   -1.489546451361842E-1   -2.137164437136180E-4   -2.152348025820942E-4   -1.994345129390600E-4   -2.403776210004156E-4   -4.032078323614240E-1    8.112587844721778E-1
 3.185000000000000E9    -1.050134850283013       3.082979627368819E-2   -2.163194887127035E-4   -1.519432231186788E-4   -2.168257981736780E-4   -1.644430034685335E-4   -3.662479755476613E-1    7.695382665730290E-1
 3.232500000000000E9    -8.990110600477044E-1    3.158593837899523E-1   -2.407461003759111E-4   -1.061937568514813E-4   -2.656131838259138E-4   -1.487495700322418E-4   -5.543365152106225E-1    7.197897896209140E-1
 3.280000000000000E9    -9.973142044821928E-1    2.429999808396866E-1   -2.823422830335918E-4   -1.159041768996760E-4   -2.926858584180410E-4   -1.777080223866768E-4   -4.626319254382216E-1    7.622874589070342E-1
 3.327500000000000E9    -8.794401334016062E-1    5.327220790062831E-1   -2.570702823844856E-4   -5.516738954806599E-5   -2.483669346082386E-4   -7.987746796232714E-5   -4.660933884939780E-1    7.029546738240152E-1
 3.375000000000000E9    -7.131839473719482E-1    6.025760372256050E-1   -2.147642601057695E-4   -3.293698519960971E-5   -2.023126977071011E-4   -1.426277610100727E-5   -6.192366747595507E-1    6.802642561040587E-1
 3.422500000000000E9    -8.396782808447909E-1    6.611442553091312E-1   -2.069686091888721E-4   -9.990121818795790E-5   -2.398447522230820E-4   -9.851142059854530E-5   -4.904413360299240E-1    7.108799599805397E-1
 3.470000000000000E9    -4.733000570281910E-1    8.699490501869489E-1   -1.958038351540879E-4   -6.087912519360766E-5   -1.901727541604731E-4   -3.769251859024190E-5   -5.554740505869465E-1    6.473344926498547E-1
 3.517500000000000E9    -4.813143633557915E-1    8.039832843890941E-1   -2.286397080190308E-4   -7.181781163992329E-5   -2.309625976468056E-4   -4.231305261221069E-5   -6.317871156616711E-1    6.640956927384910E-1
 3.565000000000000E9    -5.253006411445797E-1    9.411106909585156E-1   -2.364492126595482E-4   -1.018373502586009E-4   -2.412725207980159E-4   -1.070496737138628E-4   -5.423639649160424E-1    6.590770818755595E-1
 3.612500000000000E9    -7.217268996455395E-2    9.047997483262820E-1   -2.174634211921728E-4   -6.599793137052309E-5   -2.020275772318612E-4   -5.735849845864037E-5   -7.025643343227613E-1    5.370247775247852E-1
 3.660000000000000E9    -1.189749738872070E-1    9.674813102298291E-1   -2.258285608797729E-4   -4.463505876488254E-5   -2.022835546270586E-4   -1.288257965361655E-5   -6.817735333849644E-1    5.776233967430098E-1
 3.707500000000000E9     5.800636963057295E-2    1.046555551152935      -2.685829858069451E-4   -1.054289670021423E-4   -2.654021902976192E-4   -9.107328624999512E-5   -6.379821498418650E-1    5.559786422557816E-1
 3.755000000000000E9     2.926189496986991E-1    8.393492843190060E-1   -2.583802382396162E-4   -5.215975434380715E-5   -2.750869246265341E-4   -4.382203501412602E-5   -7.255377039507023E-1    4.891567673162231E-1
 3.802500000000000E9     2.385867945617700E-1    9.775263039617393E-1   -2.915266875909693E-4   -2.763715581636441E-5   -2.697053595123819E-4   -1.247619738940055E-5   -6.987264933133092E-1    5.299614815881578E-1
 3.850000000000000E9     5.105726172468306E-1    8.151680282748279E-1   -3.081648371575916E-4    2.718099811409302E-6   -3.194838571096814E-4    9.037866585398934E-6   -7.019068222486251E-1    4.809372361448649E-1
 3.897500000000000E9     5.436317386682249E-1    6.926796744025185E-1   -2.686587420751013E-4    9.632349914915349E-5   -2.584166972310747E-4    1.012709988723089E-4   -7.688704791346298E-1    4.088958152311525E-1
 3.945000000000000E9     6.615541447937920E-1    7.820170829234332E-1   -1.909364358484612E-4    7.756705288834165E-5   -1.636970224568667E-4    5.428978007317781E-5   -7.013453374317671E-1    4.775432835145539E-1
 3.992500000000000E9     7.251673878182761E-1    4.906131593672756E-1   -1.703963866131899E-4    4.675135297565310E-5   -1.499442449327991E-4    5.258043651389019E-5   -7.478304545169477E-1    4.180598000267854E-1
 4.040000000000000E9     7.693296186902510E-1    5.330820228450835E-1   -1.687028787613162E-4    2.119778617386069E-5   -1.720178967655458E-4    2.950380750582852E-5   -7.478046315344316E-1    4.237085547551275E-1
 4.087500000000000E9     9.254639299711035E-1    3.557182976570666E-1   -1.788572632433571E-4    1.133497495282915E-5   -1.785246604420755E-4   -6.711336166064503E-6   -7.331304461964430E-1    4.077950912425933E-1
 4.135000000000000E9     7.608002737794444E-1    2.087026612416293E-1   -1.571374788731875E-4    1.876649867456731E-5   -1.576790302268387E-4    1.952508679961996E-5   -8.246830329906790E-1    3.416019944188757E-1
 4.182500000000000E9     9.844050621201232E-1    1.813559367145701E-1   -1.734379250061032E-4    3.123869633255625E-5   -1.998247067648250E-4    6.425415351497709E-6   -7.261864665412503E-1    3.561191439458494E-1
 4.230000000000000E9     9.052839346594718E-1   -8.940863956636583E-2   -1.878372500694638E-4    5.155010967354881E-5   -2.074464776605299E-4    3.851160634669745E-5   -8.193698044719621E-1    3.076308740108896E-1
 4.277500000000000E9     7.666988712862227E-1   -8.689300157108956E-2   -1.706421119020509E-4    5.590891522487809E-5   -1.942722356827292E-4    5.204775006786604E-5   -8.241457892931199E-1    2.855108816334712E-1
 4.325000000000000E9     1.032400927071089      -3.049623297257292E-1   -1.701068233368694E-4    8.877479329125784E-5   -2.071299761289451E-4    7.871611082107276E-5   -7.498101598318718E-1    2.166630575775947E-1
 4.372500000000000E9     7.271669889143131E-1   -3.584873350618000E-1   -1.459864788610483E-4    9.802331911166044E-5   -1.750642706939437E-4    1.057945146387666E-4   -8.192298658442239E-1    3.753942876517871E-1
 4.420000000000000E9     7.247059854614437E-1   -4.030957778335424E-1   -1.498666370848720E-4    7.360625302141439E-5   -1.415834861090518E-4    1.070384485026573E-4   -8.399067298306288E-1    1.726046993250002E-1
 4.467500000000000E9     7.805287079128209E-1   -6.831286115171932E-1   -1.440232609374848E-4    1.188184256373214E-4   -1.589680558867966E-4    1.379573626467174E-4   -7.858356061042040E-1    2.019601783858227E-1
 4.515000000000000E9     4.786193881233189E-1   -6.386707736354329E-1   -1.467507504413129E-4    9.426537384307080E-5   -1.345704188048308E-4    9.795086252983583E-5   -9.025992222317260E-1    1.446642986329537E-1
 4.562500000000000E9     5.531897130574780E-1   -6.930899533066441E-1   -1.174112011348995E-4    7.774243035234881E-5   -1.104530644170767E-4    1.008943215304882E-4   -8.121216078614766E-1    1.101169695344101E-1
 4.610000000000000E9     3.899668562830625E-1   -9.591959113795073E-1   -8.858721342845565E-5    9.088696659963929E-5   -5.838029461979086E-5    1.133030139879718E-4   -8.538983735367003E-1    5.804568217520790E-2
 4.657500000000000E9     2.292078107386253E-1   -7.528211277845555E-1   -8.691163995195193E-5    6.067713362915482E-5   -8.934954497835152E-5    8.812618520531268E-5   -8.707909595324579E-1    8.503103655096690E-2
 4.705000000000000E9     2.312166175241728E-1   -9.159305303347676E-1   -9.095134092141363E-5    5.298164726126666E-5   -6.936893109984697E-5    8.091911140803962E-5   -8.262907909795713E-1    4.346978229930386E-2
 4.752500000000000E9    -2.740182224246722E-2   -9.800455478978293E-1   -7.556604999410867E-5    6.437119437208230E-5   -4.941550184133174E-5    8.308463774699120E-5   -8.725373339743326E-1   -1.670120240565028E-2
 4.800000000000000E9    -7.624545137447146E-2   -8.028231723526189E-1   -5.336711074285563E-5    6.440272310077239E-5   -6.476149839654814E-5    5.463447299899382E-5   -8.563739526109624E-1   -1.538506234754023E-2
 4.847500000000000E9    -1.506823126566653E-1   -1.003377067477910      -6.544883425755467E-5    6.274806330673888E-5   -4.129916260246074E-5    6.967942926061113E-5   -8.398664096043806E-1   -8.291390732240848E-2
 4.895000000000000E9    -3.802258082222618E-1   -8.045164295590221E-1   -5.978156611642251E-5    8.520646132309879E-5   -4.622907773440682E-5    7.465416837411452E-5   -8.811444727486279E-1   -2.235469841850250E-2
 4.942500000000000E9    -4.439656957725195E-1   -7.835141693803043E-1   -4.897087655874554E-5    7.274060183593639E-5   -2.287572104508640E-5    5.665831845400014E-5   -8.169784177418581E-1   -1.706995739291280E-1
 4.990000000000000E9    -5.931865459657937E-1   -8.189535953959217E-1   -4.220850229586597E-5    6.056771993416622E-5   -2.053772922818077E-5    5.023141170543746E-5   -8.618681865304895E-1   -1.863690057247463E-1
 5.037500000000000E9    -6.105998110791367E-1   -6.168188798951414E-1   -2.668236115183917E-5    1.775713425597289E-5    2.194393604935392E-6    1.955508041822254E-5   -8.271052968711321E-1   -1.525132665118716E-1
 5.085000000000000E9    -7.364010338080929E-1   -6.017212051133379E-1   -3.820990013017315E-5   -7.901622463693666E-7   -4.195666904357998E-5    8.788681968113895E-6   -7.940771301634582E-1   -2.568402059925319E-1
 5.132500000000000E9    -8.933676763855171E-1   -4.304815382444276E-1   -4.481452364904631E-5    3.232891275136215E-6   -1.762562897555113E-5   -6.703042306504527E-6   -8.767822012967894E-1   -2.120499284300023E-1
 5.180000000000000E9    -7.841613834199906E-1   -4.012923857425855E-1   -5.023514323655857E-5    6.784893457708296E-6   -5.308146117902719E-5    1.609299625018915E-5   -7.489409808127132E-1   -2.653198522235000E-1
 5.227500000000000E9    -9.641536151702477E-1   -3.040113806322942E-1   -6.157550123160817E-5    2.314889891420908E-5   -6.533096057785371E-5    1.419839597481242E-5   -8.046182776720541E-1   -3.224098960855339E-1
 5.275000000000000E9    -9.498278749076434E-1   -4.721206789290449E-2   -6.614444202842335E-5    2.163192202603860E-5   -6.654931041588676E-5    4.084456165715257E-5   -8.473038904698259E-1   -2.479423713583543E-1
