#  HZ   S   RI   R     50.00 
! Rohde & Schwarz Vector Network Analyzer 
! Rohde-Schwarz,ZNA67-4Port,1332450064101810,2.73
! Created: UTC 3/17/2026, 12:04:26 PM
! freq[Hz]                re:S11                  im:S11
 1.000000000000000E7    -2.919240430705997E-3    7.778988997819255E-1
 3.449500000000000E8    -8.590959599958101E-2    2.213930961485577
 6.799000000000000E8     5.136665124445958       4.966443787659461
 1.014850000000000E9     5.009333229399168E-1    2.712217007754265E-1
 1.349800000000000E9    -2.685168161482558E-1    1.035243826083413
 1.684750000000000E9     1.341797175720759E-1   -2.109661045161361E-1
 2.019700000000000E9    -1.659975057425305       6.700297817064258E-1
 2.354650000000000E9     6.182622712361754E-2   -9.719678057111228E-1
 2.689600000000000E9     3.955990171731120E-1   -4.051611770620814E-1
 3.024550000000000E9    -9.764829845031986E-2    2.686144570568942
 3.359500000000000E9     8.872487483953168E-2    6.798216032693326E-1
 3.694450000000000E9    -8.137290530955001E-1   -1.576933944107222
 4.029400000000000E9     2.050184010770198E-1    3.071696797638901E-1
 4.364350000000000E9     2.324830979715348      -8.894196875631838E-1
 4.699300000000000E9     3.362459178647155E-1   -3.580791881904898E-1
 5.034250000000000E9     1.236804233622904E-3    2.702159582707686
 5.369200000000000E9    -2.085073365689765E-1    2.779205090381586E-2
 5.704150000000000E9     5.575244743944011E-1   -3.838895522973720E-1
 6.039100000000000E9     1.105673354254261       3.021419887089202E-1
 6.374050000000000E9    -8.668668899417539E-1   -2.521113592262723E-1
 6.709000000000000E9    -8.528585915417507E-1   -2.937881351229644E-1
 7.043950000000000E9    -6.390192242463517       4.443000433800390
 7.378900000000000E9     3.016829627623459E-1   -6.315108382057418E-1
 7.713850000000000E9     4.357571008576116E-1    9.981502931863763E-2
 8.048800000000000E9    -1.118879443278660E-2   -1.286419174640964
 8.383750000000000E9    -5.174157445617410E-2    4.529947494400810E-2
 8.718700000000000E9    -7.553278672560420E-1   -6.547488745434414E-1
 9.053650000000000E9    -1.594830893267370E-1   -3.059493937962955
 9.388600000000000E9     3.070050836321277E-1   -2.500790759792122
 9.723550000000000E9    -2.124347423410422      -8.457873477512096E-1
 1.005850000000000E+10   1.222870459044783      -1.314104578072989
 1.039345000000000E+10  -5.730134205439141E-1    2.226355000330416E-1
 1.072840000000000E+10  -1.778300278469725E-1    3.637185513199666E-1
 1.106335000000000E+10   3.852270697184939E-1   -1.681937216630383
 1.139830000000000E+10   1.097803701468550      -2.060236235972388
 1.173325000000000E+10  -3.954566616569945E-1    5.024877291156263E-1
 1.206820000000000E+10   9.262963719493559       9.448828877602143
 1.240315000000000E+10  -8.988008694259152E-1   -6.763789102011638E-1
 1.273810000000000E+10   1.067948523409780       1.248564073187226
 1.307305000000000E+10   1.389787732756989E-1    1.717454502442938E-1
 1.340800000000000E+10   7.940207283758886E-1    3.973458841812184E-1
 1.374295000000000E+10  -1.124705466478786      -8.235068077554518E-1
 1.407790000000000E+10  -1.004789844866853      -8.767390503097181E-1
 1.441285000000000E+10   8.181355153690426E-1   -4.306492714326648E-1
 1.474780000000000E+10   6.920993775400138       9.612149827301643
 1.508275000000000E+10   7.856733283316332E-1   -1.315292592695132
 1.541770000000000E+10   1.477304056946572       4.953616933571642E-2
 1.575265000000000E+10  -1.133205498859700       3.171795736340908E-1
 1.608760000000000E+10  -7.965852849798279E-1   -1.236734813007211
 1.642255000000000E+10  -9.608168647055232E-1   -4.418938210929687E-1
 1.675750000000000E+10   1.393954265745709      -6.070099921859462E-1
 1.709245000000000E+10   2.131228471357361E-2    3.935626436217917E-1
 1.742740000000000E+10   1.222853471156770      -7.395249874287769E-1
 1.776235000000000E+10   8.393075611421533E-1   -3.989822815747664E-1
 1.809730000000000E+10  -1.102911882608585       6.893512162507646E-3
 1.843225000000000E+10   5.568019495273285E-1   -2.534609047803034E-2
 1.876720000000000E+10  -9.327809383213552E-1    1.441954260360567
 1.910215000000000E+10  -3.517844924277507E-1   -1.749096317379293
 1.943710000000000E+10   3.016825944122548E-1    1.226482445126740
 1.977205000000000E+10  -7.901896867509659E-1    4.523880881293937E-2
 2.010700000000000E+10   1.512065314163951       9.505408099691464E-1
 2.044195000000000E+10   4.681840706015995E-1   -2.765336460613955E-1
 2.077690000000000E+10   6.302151274576059E-1   -1.273377073081812
 2.111185000000000E+10  -3.080915347205014E-1    1.771092792912705E-3
 2.144680000000000E+10  -2.590364344563777       9.729370341928232E-1
 2.178175000000000E+10   3.540603502593302E-1   -7.472274592761756E-1
 2.211670000000000E+10   1.595426865063149      -6.734776747379245E-1
 2.245165000000000E+10  -3.329369751504486E-1   -3.916664066316528
 2.278660000000000E+10  -9.369648388513793E-1   -1.739130925865404E-1
 2.312155000000000E+10   5.104564388115298E-1   -2.159243041282801
 2.345650000000000E+10  -3.230974434300803E-1   -3.803565318807396E-1
 2.379145000000000E+10   2.788296034981226E-2    1.076307130613645
 2.412640000000000E+10   1.078712903252960       1.526339589665100E-2
 2.446135000000000E+10  -6.293540161686111E-1   -2.746715201702629E-1
 2.479630000000000E+10  -1.457878647324826E-1    5.831142229944699E-1
 2.513125000000000E+10  -6.435090685434521E-1   -1.171319589754838
 2.546620000000000E+10   1.603795763106002      -3.689870941871412
 2.580115000000000E+10   4.718537788809258E-1   -2.331018615875655
 2.613610000000000E+10   6.514015156217100E-1   -1.448477414971779E-1
 2.647105000000000E+10   2.222220703885927E-2   -4.205254613540936E-1
 2.680600000000000E+10   6.550570519591122E-1   -6.600145609693607E-1
 2.714095000000000E+10   3.200261903303663       5.292377470659501E-1
 2.747590000000000E+10  -1.474549200992669E-1   -4.395660226217946E-2
 2.781085000000000E+10   8.651087883350804E-2   -3.181111967684021
 2.814580000000000E+10  -9.585683538111779E-1    4.875896000183877E-1
 2.848075000000000E+10   1.015623846393094      -2.148507041729149
 2.881570000000000E+10  -2.413286291334934      -3.545799386403736
 2.915065000000000E+10   1.191210782100110       1.298084968417757E1
 2.948560000000000E+10   1.177195185298548      -1.037436329230576
 2.982055000000000E+10   1.275950225576516E-1   -1.770777757097453
 3.015550000000000E+10   2.649688996873078E-2    7.461442573368681E-1
 3.049045000000000E+10   9.632867442119660E-1   -1.437307310458462E-1
 3.082540000000000E+10  -6.222793627448702E-1   -9.083408301806544E-1
 3.116035000000000E+10  -4.552930867261030       4.017489428647337E-1
 3.149530000000000E+10   6.051823990804074E-1    1.076717667236096
 3.183025000000000E+10   1.138457952636102      -2.504708641446751E-1
 3.216520000000000E+10  -1.265180144595164      -4.905052793418243E-1
 3.250015000000000E+10   5.629884906662377E-1    1.307300366364320
 3.283510000000000E+10  -4.908224675835512E-1   -3.822490010231388E-1
 3.317005000000000E+10  -1.897582842876424       2.559975645013887E-1
 3.350500000000000E+10  -9.474637365653713E-1    4.021465328185138E-1
 3.383995000000000E+10   5.910107244673690E-1    6.342573637683088E-2
 3.417490000000000E+10   8.658386780340345E-2    8.588632575719465E-1
 3.450985000000000E+10   7.524488884757810E-1    1.896457837615218
 3.484480000000000E+10  -9.767602429075380E-1    1.738031512011974
 3.517975000000000E+10   3.650882111366339E-1   -6.393837497285512E-1
 3.551470000000000E+10  -1.471215992449988E-1   -2.488327111088427E-1
 3.584965000000000E+10   2.591412156483287E-1   -5.956397276031965E-1
 3.618460000000000E+10  -1.323144465169411      -6.729413135905482E-1
 3.651955000000000E+10   1.313340292165501       1.133465344405187
 3.685450000000000E+10  -6.375182222396317E-1    2.222910199639781
 3.718945000000000E+10   0.000000000000000       0.000000000000000
 3.752440000000000E+10   0.000000000000000       0.000000000000000
 3.785935000000000E+10   0.000000000000000       0.000000000000000
 3.819430000000000E+10   0.000000000000000       0.000000000000000
 3.852925000000000E+10   0.000000000000000       0.000000000000000
 3.886420000000000E+10   3.440798669630891E-2    6.286381093911215E-1
 3.919915000000000E+10  -5.802301248906571E-2   -2.090936039760397
 3.953410000000000E+10   4.543301354689464E-1    2.893842242844330E-1
 3.986905000000000E+10   8.197527225781334E-1    1.444907560572276
 4.020400000000000E+10  -2.691524102931150E1     1.213108063964976E1
 4.053895000000000E+10  -1.098387048525546      -9.748612796247253
 4.087390000000000E+10   0.000000000000000       0.000000000000000
 4.120885000000000E+10   0.000000000000000       0.000000000000000
 4.154380000000000E+10   0.000000000000000       0.000000000000000
 4.187875000000000E+10   0.000000000000000       0.000000000000000
 4.221370000000000E+10   0.000000000000000       0.000000000000000
 4.254865000000000E+10   0.000000000000000       0.000000000000000
 4.288360000000000E+10   0.000000000000000       0.000000000000000
 4.321855000000000E+10   0.000000000000000       0.000000000000000
 4.355350000000000E+10   0.000000000000000       0.000000000000000
 4.388845000000000E+10   0.000000000000000       0.000000000000000
 4.422340000000000E+10   0.000000000000000       0.000000000000000
 4.455835000000000E+10   0.000000000000000       0.000000000000000
 4.489330000000000E+10   0.000000000000000       0.000000000000000
 4.522825000000000E+10   0.000000000000000       0.000000000000000
 4.556320000000000E+10   0.000000000000000       0.000000000000000
 4.589815000000000E+10   0.000000000000000       0.000000000000000
 4.623310000000000E+10   0.000000000000000       0.000000000000000
 4.656805000000000E+10   0.000000000000000       0.000000000000000
 4.690300000000000E+10   0.000000000000000       0.000000000000000
 4.723795000000000E+10   0.000000000000000       0.000000000000000
 4.757290000000000E+10   0.000000000000000       0.000000000000000
 4.790785000000000E+10   0.000000000000000       0.000000000000000
 4.824280000000000E+10   0.000000000000000       0.000000000000000
 4.857775000000000E+10   0.000000000000000       0.000000000000000
 4.891270000000000E+10   0.000000000000000       0.000000000000000
 4.924765000000000E+10   0.000000000000000       0.000000000000000
 4.958260000000000E+10   0.000000000000000       0.000000000000000
 4.991755000000000E+10   0.000000000000000       0.000000000000000
 5.025250000000000E+10   0.000000000000000       0.000000000000000
 5.058745000000000E+10   0.000000000000000       0.000000000000000
 5.092240000000000E+10   0.000000000000000       0.000000000000000
 5.125735000000000E+10   0.000000000000000       0.000000000000000
 5.159230000000000E+10   0.000000000000000       0.000000000000000
 5.192725000000000E+10   0.000000000000000       0.000000000000000
 5.226220000000000E+10   0.000000000000000       0.000000000000000
 5.259715000000000E+10   0.000000000000000       0.000000000000000
 5.293210000000000E+10   0.000000000000000       0.000000000000000
 5.326705000000000E+10   0.000000000000000       0.000000000000000
 5.360200000000000E+10   0.000000000000000       0.000000000000000
 5.393695000000000E+10   0.000000000000000       0.000000000000000
 5.427190000000000E+10   0.000000000000000       0.000000000000000
 5.460685000000000E+10   0.000000000000000       0.000000000000000
 5.494180000000000E+10   0.000000000000000       0.000000000000000
 5.527675000000000E+10   0.000000000000000       0.000000000000000
 5.561170000000000E+10   0.000000000000000       0.000000000000000
 5.594665000000000E+10   0.000000000000000       0.000000000000000
 5.628160000000000E+10   0.000000000000000       0.000000000000000
 5.661655000000000E+10   0.000000000000000       0.000000000000000
 5.695150000000000E+10   0.000000000000000       0.000000000000000
 5.728645000000000E+10   0.000000000000000       0.000000000000000
 5.762140000000000E+10   0.000000000000000       0.000000000000000
 5.795635000000000E+10   0.000000000000000       0.000000000000000
 5.829130000000000E+10   0.000000000000000       0.000000000000000
 5.862625000000000E+10   0.000000000000000       0.000000000000000
 5.896120000000000E+10   0.000000000000000       0.000000000000000
 5.929615000000000E+10   0.000000000000000       0.000000000000000
 5.963110000000000E+10   0.000000000000000       0.000000000000000
 5.996605000000000E+10   0.000000000000000       0.000000000000000
 6.030100000000000E+10   0.000000000000000       0.000000000000000
 6.063595000000000E+10   0.000000000000000       0.000000000000000
 6.097090000000000E+10   0.000000000000000       0.000000000000000
 6.130585000000000E+10   0.000000000000000       0.000000000000000
 6.164080000000000E+10   0.000000000000000       0.000000000000000
 6.197575000000000E+10   0.000000000000000       0.000000000000000
 6.231070000000000E+10   0.000000000000000       0.000000000000000
 6.264565000000000E+10   0.000000000000000       0.000000000000000
 6.298060000000000E+10   0.000000000000000       0.000000000000000
 6.331555000000000E+10   0.000000000000000       0.000000000000000
 6.365050000000000E+10   0.000000000000000       0.000000000000000
 6.398545000000000E+10   0.000000000000000       0.000000000000000
 6.432040000000000E+10   0.000000000000000       0.000000000000000
 6.465535000000000E+10   0.000000000000000       0.000000000000000
 6.499030000000000E+10   0.000000000000000       0.000000000000000
 6.532525000000000E+10   0.000000000000000       0.000000000000000
 6.566020000000000E+10   0.000000000000000       0.000000000000000
 6.599515000000000E+10   0.000000000000000       0.000000000000000
 6.633010000000000E+10   0.000000000000000       0.000000000000000
 6.666505000000000E+10   0.000000000000000       0.000000000000000
 6.700000000000000E+10   0.000000000000000       0.000000000000000
