!Created: 12-31-2019 at 14:30:12
!Mini-Circuits
!S3P DATA File Format
!Type: DIRECTIONAL COUPLER
!Port 1: Input; Port 2: Output; Port 3: Couple
!TEST CONDITIONS: Z:50 OHM SYSTEM, INPUT POWER = -10dBm, TEMP:25°C
!MODEL: ZCDC10-E2653+
!S/N: 402_25C
# MHZ S DB R 50
!Frequency     
!                   S11 dB    S11 DEG     S12 dB    S12 DEG     S13 dB    S13 DEG
!                   S21 dB    S21 DEG     S22 dB    S22 DEG     S23 dB    S23 DEG
!                   S31 dB    S31 DEG     S32 dB    S32 DEG     S33 dB    S33 DEG
10.0000  -4.212558E+001 -3.668122E+001 -6.919150E-002 -9.535962E-001 -5.383007E+001  9.122771E+001
-6.375217E-002 -9.450403E-001 -4.260066E+001 -5.465287E+001 -7.222265E+001 -1.795285E+001
-5.196827E+001  9.214560E+001 -6.903159E+001 -8.750130E+001 -5.526236E+001 -4.412983E+001
20.0000  -4.693093E+001  1.732385E+001 -3.020582E-002 -2.530732E+000 -4.617556E+001  8.793102E+001
-2.939990E-002 -2.531107E+000 -4.607446E+001 -1.448258E+000 -7.376290E+001 -1.199763E+002
-4.613934E+001  8.971834E+001 -7.111940E+001 -1.062981E+002 -5.298763E+001  6.818999E+001
30.0000  -4.382240E+001  3.680137E+001 -2.967881E-002 -3.930360E+000 -4.274119E+001  8.680354E+001
-3.352816E-002 -3.942307E+000 -4.464864E+001  2.300154E+001 -6.702734E+001 -9.923203E+001
-4.278312E+001  8.682855E+001 -6.652524E+001 -9.711098E+001 -4.735706E+001  7.200968E+001
40.0000  -4.219053E+001  4.584179E+001 -3.653508E-002 -5.297227E+000 -4.025609E+001  8.639418E+001
-3.699019E-002 -5.292187E+000 -4.336129E+001  2.934642E+001 -6.725061E+001 -9.833119E+001
-4.027344E+001  8.608488E+001 -6.502484E+001 -1.025100E+002 -4.461941E+001  7.062223E+001
50.0000  -4.088008E+001  5.063793E+001 -3.892914E-002 -6.608095E+000 -3.829102E+001  8.499416E+001
-3.913512E-002 -6.611241E+000 -4.278152E+001  3.366199E+001 -6.387162E+001 -1.064598E+002
-3.836021E+001  8.513303E+001 -6.243381E+001 -1.029261E+002 -4.276196E+001  6.967992E+001
60.0000  -3.995805E+001  5.303930E+001 -4.433353E-002 -7.926569E+000 -3.679595E+001  8.415337E+001
-4.663783E-002 -7.917094E+000 -4.190268E+001  3.545140E+001 -6.233333E+001 -1.044485E+002
-3.680319E+001  8.406115E+001 -6.192835E+001 -1.062810E+002 -4.128844E+001  6.792231E+001
70.0000  -3.899783E+001  5.355812E+001 -4.811116E-002 -9.243229E+000 -3.543108E+001  8.310028E+001
-4.849089E-002 -9.252313E+000 -4.092180E+001  4.037022E+001 -6.033212E+001 -1.131910E+002
-3.545505E+001  8.308519E+001 -6.046024E+001 -1.098472E+002 -4.000604E+001  6.639938E+001
80.0000  -3.847379E+001  5.506533E+001 -5.187370E-002 -1.055588E+001 -3.429777E+001  8.180990E+001
-5.125850E-002 -1.055708E+001 -3.986440E+001  4.437709E+001 -5.974083E+001 -1.117785E+002
-3.431417E+001  8.215848E+001 -5.990057E+001 -1.126124E+002 -3.903664E+001  6.484161E+001
90.0000  -3.803727E+001  5.402765E+001 -5.358569E-002 -1.187557E+001 -3.330010E+001  8.117559E+001
-5.549560E-002 -1.187808E+001 -3.917365E+001  4.800992E+001 -5.882877E+001 -1.158628E+002
-3.330498E+001  8.107203E+001 -5.843341E+001 -1.184084E+002 -3.821581E+001  6.378400E+001
100.0000  -3.742709E+001  5.390334E+001 -5.857508E-002 -1.317768E+001 -3.237989E+001  8.018190E+001
-5.853018E-002 -1.318627E+001 -3.835240E+001  5.003366E+001 -5.724747E+001 -1.205280E+002
-3.237988E+001  8.017625E+001 -5.740888E+001 -1.195281E+002 -3.737056E+001  6.235336E+001
110.0000  -3.680582E+001  5.406621E+001 -6.099759E-002 -1.449067E+001 -3.156282E+001  7.929526E+001
-6.203596E-002 -1.449406E+001 -3.759502E+001  5.005198E+001 -5.678479E+001 -1.218012E+002
-3.157511E+001  7.926485E+001 -5.704339E+001 -1.217987E+002 -3.671235E+001  6.103957E+001
120.0000  -3.623403E+001  5.303799E+001 -6.479095E-002 -1.579696E+001 -3.082029E+001  7.836440E+001
-6.458011E-002 -1.580428E+001 -3.676383E+001  5.006189E+001 -5.605281E+001 -1.256483E+002
-3.082642E+001  7.834424E+001 -5.598779E+001 -1.261381E+002 -3.604139E+001  5.920381E+001
130.0000  -3.579510E+001  5.112970E+001 -6.759422E-002 -1.710052E+001 -3.013266E+001  7.731934E+001
-6.818197E-002 -1.710167E+001 -3.608818E+001  5.045373E+001 -5.565931E+001 -1.278592E+002
-3.012260E+001  7.742090E+001 -5.554139E+001 -1.272136E+002 -3.548833E+001  5.765136E+001
140.0000  -3.546293E+001  4.911432E+001 -6.992031E-002 -1.839788E+001 -2.949792E+001  7.647242E+001
-7.021923E-002 -1.840274E+001 -3.539819E+001  5.001398E+001 -5.475538E+001 -1.307511E+002
-2.949834E+001  7.640566E+001 -5.480916E+001 -1.296404E+002 -3.496491E+001  5.598990E+001
150.0000  -3.515173E+001  4.686302E+001 -7.391758E-002 -1.969078E+001 -2.890291E+001  7.551344E+001
-7.296465E-002 -1.970284E+001 -3.486638E+001  4.870348E+001 -5.455648E+001 -1.334511E+002
-2.889569E+001  7.556757E+001 -5.439615E+001 -1.324732E+002 -3.447937E+001  5.436679E+001
160.0000  -3.471780E+001  4.589760E+001 -7.543063E-002 -2.098556E+001 -2.835148E+001  7.460281E+001
-7.567023E-002 -2.099095E+001 -3.444052E+001  4.754324E+001 -5.408112E+001 -1.356278E+002
-2.835405E+001  7.458973E+001 -5.397544E+001 -1.356302E+002 -3.400445E+001  5.327364E+001
170.0000  -3.419689E+001  4.491295E+001 -7.720869E-002 -2.228865E+001 -2.783864E+001  7.361874E+001
-7.751571E-002 -2.228991E+001 -3.390636E+001  4.673574E+001 -5.373203E+001 -1.401865E+002
-2.783649E+001  7.367841E+001 -5.338750E+001 -1.380343E+002 -3.357840E+001  5.181384E+001
180.0000  -3.374485E+001  4.395665E+001 -7.998893E-002 -2.358039E+001 -2.734992E+001  7.270561E+001
-8.084027E-002 -2.358828E+001 -3.362324E+001  4.497595E+001 -5.319850E+001 -1.413126E+002
-2.734620E+001  7.272803E+001 -5.313645E+001 -1.412721E+002 -3.317146E+001  5.055540E+001
190.0000  -3.331485E+001  4.281656E+001 -8.290549E-002 -2.487809E+001 -2.688130E+001  7.178561E+001
-8.450305E-002 -2.488375E+001 -3.325786E+001  4.366512E+001 -5.280497E+001 -1.447973E+002
-2.688827E+001  7.182569E+001 -5.275810E+001 -1.448244E+002 -3.277855E+001  4.926264E+001
200.0000  -3.290622E+001  4.211905E+001 -8.659791E-002 -2.617424E+001 -2.644572E+001  7.087705E+001
-8.677922E-002 -2.617150E+001 -3.295308E+001  4.207684E+001 -5.238548E+001 -1.456119E+002
-2.645028E+001  7.084583E+001 -5.249329E+001 -1.454533E+002 -3.243499E+001  4.799414E+001
210.0000  -3.250687E+001  4.186879E+001 -8.936882E-002 -2.746541E+001 -2.602987E+001  6.993557E+001
-8.962119E-002 -2.747438E+001 -3.272522E+001  4.107380E+001 -5.222425E+001 -1.476414E+002
-2.603968E+001  6.997263E+001 -5.201031E+001 -1.490016E+002 -3.212232E+001  4.676414E+001
220.0000  -3.214434E+001  4.199829E+001 -9.159175E-002 -2.876297E+001 -2.564308E+001  6.907520E+001
-9.161011E-002 -2.876757E+001 -3.250914E+001  3.973773E+001 -5.201700E+001 -1.494538E+002
-2.564857E+001  6.897243E+001 -5.191074E+001 -1.501677E+002 -3.181974E+001  4.554847E+001
230.0000  -3.188059E+001  4.153050E+001 -9.368543E-002 -3.005774E+001 -2.525216E+001  6.807367E+001
-9.460539E-002 -3.006788E+001 -3.224986E+001  3.899360E+001 -5.150776E+001 -1.531936E+002
-2.525569E+001  6.807153E+001 -5.157722E+001 -1.526029E+002 -3.152537E+001  4.427321E+001
240.0000  -3.165258E+001  4.107344E+001 -9.777637E-002 -3.135010E+001 -2.491240E+001  6.715405E+001
-9.739008E-002 -3.135203E+001 -3.200883E+001  3.820649E+001 -5.131307E+001 -1.549690E+002
-2.489258E+001  6.717449E+001 -5.125251E+001 -1.550247E+002 -3.125960E+001  4.309140E+001
250.0000  -3.142551E+001  4.054652E+001 -9.947760E-002 -3.264099E+001 -2.455851E+001  6.628022E+001
-1.000932E-001 -3.265054E+001 -3.178708E+001  3.712281E+001 -5.095591E+001 -1.571818E+002
-2.456116E+001  6.625171E+001 -5.100084E+001 -1.577082E+002 -3.101560E+001  4.176706E+001
260.0000  -3.126075E+001  4.033794E+001 -1.030927E-001 -3.393946E+001 -2.423232E+001  6.533343E+001
-1.035640E-001 -3.394029E+001 -3.157826E+001  3.661536E+001 -5.059497E+001 -1.597702E+002
-2.422925E+001  6.532960E+001 -5.065032E+001 -1.603491E+002 -3.078197E+001  4.036877E+001
270.0000  -3.111763E+001  3.965326E+001 -1.061568E-001 -3.523321E+001 -2.391350E+001  6.438557E+001
-1.061032E-001 -3.523605E+001 -3.139365E+001  3.595149E+001 -5.056538E+001 -1.610681E+002
-2.390930E+001  6.441765E+001 -5.047921E+001 -1.617478E+002 -3.056497E+001  3.918708E+001
280.0000  -3.089737E+001  3.906143E+001 -1.085518E-001 -3.652407E+001 -2.360194E+001  6.346369E+001
-1.094511E-001 -3.654075E+001 -3.118894E+001  3.506812E+001 -5.006495E+001 -1.636831E+002
-2.359908E+001  6.352100E+001 -5.006473E+001 -1.639078E+002 -3.036206E+001  3.768003E+001
290.0000  -3.074626E+001  3.814066E+001 -1.117611E-001 -3.782534E+001 -2.330596E+001  6.254736E+001
-1.118949E-001 -3.782029E+001 -3.094762E+001  3.402847E+001 -4.997045E+001 -1.655575E+002
-2.330786E+001  6.258202E+001 -4.992899E+001 -1.667044E+002 -3.018963E+001  3.644411E+001
300.0000  -3.068666E+001  3.685163E+001 -1.149888E-001 -3.910571E+001 -2.302771E+001  6.162498E+001
-1.157220E-001 -3.910754E+001 -3.073009E+001  3.312496E+001 -4.962383E+001 -1.679895E+002
-2.302737E+001  6.164236E+001 -4.976112E+001 -1.688906E+002 -2.999302E+001  3.513525E+001
310.0000  -3.050101E+001  3.520888E+001 -1.177863E-001 -4.039318E+001 -2.275677E+001  6.073080E+001
-1.187026E-001 -4.040808E+001 -3.050270E+001  3.192977E+001 -4.940143E+001 -1.708272E+002
-2.274982E+001  6.075417E+001 -4.942149E+001 -1.715452E+002 -2.980737E+001  3.367814E+001
320.0000  -3.035832E+001  3.426652E+001 -1.212469E-001 -4.168845E+001 -2.248990E+001  5.982561E+001
-1.203985E-001 -4.169406E+001 -3.025623E+001  3.097066E+001 -4.930510E+001 -1.736339E+002
-2.248521E+001  5.981955E+001 -4.921052E+001 -1.730636E+002 -2.962093E+001  3.230733E+001
330.0000  -3.022103E+001  3.276630E+001 -1.234559E-001 -4.298487E+001 -2.223175E+001  5.891521E+001
-1.235140E-001 -4.299280E+001 -3.003821E+001  3.031616E+001 -4.908189E+001 -1.758207E+002
-2.223244E+001  5.887423E+001 -4.899654E+001 -1.755200E+002 -2.946897E+001  3.084531E+001
340.0000  -3.006522E+001  3.170915E+001 -1.259360E-001 -4.427389E+001 -2.198623E+001  5.796506E+001
-1.274188E-001 -4.428316E+001 -2.985231E+001  2.906113E+001 -4.886324E+001 -1.772867E+002
-2.198235E+001  5.799369E+001 -4.879263E+001 -1.783697E+002 -2.929134E+001  2.949929E+001
350.0000  -2.985127E+001  3.041037E+001 -1.283310E-001 -4.556595E+001 -2.174311E+001  5.704635E+001
-1.306602E-001 -4.556967E+001 -2.967151E+001  2.762116E+001 -4.866262E+001 -1.799225E+002
-2.174391E+001  5.703736E+001 -4.876353E+001  1.795454E+002 -2.913503E+001  2.805248E+001
360.0000  -2.962156E+001  2.909316E+001 -1.315151E-001 -4.685634E+001 -2.151021E+001  5.611354E+001
-1.328218E-001 -4.686168E+001 -2.949854E+001  2.648679E+001 -4.844544E+001  1.771570E+002
-2.151540E+001  5.611720E+001 -4.854166E+001  1.775336E+002 -2.898543E+001  2.680424E+001
370.0000  -2.945201E+001  2.809117E+001 -1.360258E-001 -4.814836E+001 -2.128752E+001  5.522695E+001
-1.353782E-001 -4.814734E+001 -2.934275E+001  2.503308E+001 -4.833921E+001  1.754228E+002
-2.128978E+001  5.522227E+001 -4.842836E+001  1.748454E+002 -2.882848E+001  2.559984E+001
380.0000  -2.922889E+001  2.728808E+001 -1.378114E-001 -4.943567E+001 -2.106696E+001  5.428178E+001
-1.384366E-001 -4.943752E+001 -2.916260E+001  2.405568E+001 -4.825950E+001  1.725798E+002
-2.106922E+001  5.431757E+001 -4.825960E+001  1.724118E+002 -2.869130E+001  2.435068E+001
390.0000  -2.905596E+001  2.630821E+001 -1.421701E-001 -5.072765E+001 -2.085375E+001  5.338108E+001
-1.425816E-001 -5.072585E+001 -2.903550E+001  2.281976E+001 -4.808475E+001  1.703825E+002
-2.085827E+001  5.337695E+001 -4.820665E+001  1.703917E+002 -2.856347E+001  2.312112E+001
400.0000  -2.884756E+001  2.545231E+001 -1.439770E-001 -5.201691E+001 -2.065198E+001  5.246844E+001
-1.461040E-001 -5.201469E+001 -2.891035E+001  2.113604E+001 -4.807434E+001  1.674685E+002
-2.065078E+001  5.245206E+001 -4.800955E+001  1.669217E+002 -2.843716E+001  2.189445E+001
410.0000  -2.870489E+001  2.494012E+001 -1.477520E-001 -5.329901E+001 -2.044341E+001  5.156064E+001
-1.476638E-001 -5.329883E+001 -2.884588E+001  2.004242E+001 -4.794494E+001  1.650860E+002
-2.044175E+001  5.156929E+001 -4.801485E+001  1.650827E+002 -2.831495E+001  2.081834E+001
420.0000  -2.851976E+001  2.443078E+001 -1.506857E-001 -5.458512E+001 -2.025339E+001  5.066755E+001
-1.498506E-001 -5.459392E+001 -2.876566E+001  1.856906E+001 -4.790854E+001  1.630559E+002
-2.025386E+001  5.066451E+001 -4.782906E+001  1.635835E+002 -2.821856E+001  1.966829E+001
430.0000  -2.847577E+001  2.380631E+001 -1.531496E-001 -5.588375E+001 -2.005858E+001  4.975975E+001
-1.527281E-001 -5.588070E+001 -2.869431E+001  1.774829E+001 -4.777130E+001  1.618047E+002
-2.006297E+001  4.971646E+001 -4.795674E+001  1.617294E+002 -2.811497E+001  1.836347E+001
440.0000  -2.834845E+001  2.332236E+001 -1.550671E-001 -5.716085E+001 -1.987161E+001  4.881701E+001
-1.569199E-001 -5.717359E+001 -2.856014E+001  1.678235E+001 -4.780439E+001  1.593577E+002
-1.987007E+001  4.885860E+001 -4.772763E+001  1.589314E+002 -2.801234E+001  1.718470E+001
450.0000  -2.829948E+001  2.252838E+001 -1.589202E-001 -5.844642E+001 -1.969236E+001  4.791582E+001
-1.594715E-001 -5.845979E+001 -2.842909E+001  1.625245E+001 -4.751948E+001  1.570681E+002
-1.969193E+001  4.789562E+001 -4.758930E+001  1.575084E+002 -2.793440E+001  1.596501E+001
460.0000  -2.823182E+001  2.141206E+001 -1.630762E-001 -5.974477E+001 -1.951414E+001  4.702029E+001
-1.625293E-001 -5.974429E+001 -2.838476E+001  1.497223E+001 -4.755796E+001  1.554447E+002
-1.951663E+001  4.701788E+001 -4.753495E+001  1.549917E+002 -2.783828E+001  1.475766E+001
470.0000  -2.817243E+001  2.059443E+001 -1.659975E-001 -6.102771E+001 -1.934450E+001  4.607945E+001
-1.669480E-001 -6.103930E+001 -2.828947E+001  1.441930E+001 -4.724860E+001  1.534145E+002
-1.933964E+001  4.612741E+001 -4.745136E+001  1.531287E+002 -2.774940E+001  1.353461E+001
480.0000  -2.813410E+001  2.005247E+001 -1.691190E-001 -6.232556E+001 -1.917224E+001  4.519202E+001
-1.698137E-001 -6.232568E+001 -2.815116E+001  1.370479E+001 -4.716335E+001  1.521577E+002
-1.916957E+001  4.518964E+001 -4.730708E+001  1.521895E+002 -2.770715E+001  1.231197E+001
490.0000  -2.809233E+001  1.866938E+001 -1.730694E-001 -6.360022E+001 -1.900418E+001  4.429473E+001
-1.738681E-001 -6.360365E+001 -2.800949E+001  1.296471E+001 -4.700638E+001  1.499629E+002
-1.900925E+001  4.427653E+001 -4.700237E+001  1.501520E+002 -2.762430E+001  1.106927E+001
500.0000  -2.806362E+001  1.744780E+001 -1.749796E-001 -6.488893E+001 -1.884958E+001  4.339233E+001
-1.759237E-001 -6.489845E+001 -2.790920E+001  1.179356E+001 -4.707064E+001  1.477557E+002
-1.884827E+001  4.340707E+001 -4.702241E+001  1.475944E+002 -2.755806E+001  9.823099E+000
510.0000  -2.797138E+001  1.640659E+001 -1.779585E-001 -6.617493E+001 -1.869201E+001  4.249866E+001
-1.789188E-001 -6.617961E+001 -2.770645E+001  1.082822E+001 -4.676664E+001  1.457628E+002
-1.869476E+001  4.248038E+001 -4.672720E+001  1.456188E+002 -2.749564E+001  8.673479E+000
520.0000  -2.792628E+001  1.527884E+001 -1.818952E-001 -6.746194E+001 -1.853856E+001  4.156791E+001
-1.833900E-001 -6.746242E+001 -2.752117E+001  9.601465E+000 -4.668400E+001  1.430442E+002
-1.853393E+001  4.158063E+001 -4.677286E+001  1.430945E+002 -2.741838E+001  7.489325E+000
530.0000  -2.785964E+001  1.377142E+001 -1.850925E-001 -6.874502E+001 -1.838923E+001  4.069139E+001
-1.856935E-001 -6.875337E+001 -2.741915E+001  8.394337E+000 -4.656082E+001  1.407574E+002
-1.839054E+001  4.070036E+001 -4.666533E+001  1.410272E+002 -2.737119E+001  6.284835E+000
540.0000  -2.778460E+001  1.213251E+001 -1.892910E-001 -7.003095E+001 -1.823940E+001  3.977747E+001
-1.894833E-001 -7.003584E+001 -2.725848E+001  7.115158E+000 -4.655403E+001  1.387146E+002
-1.824191E+001  3.980101E+001 -4.650374E+001  1.384835E+002 -2.731089E+001  5.140772E+000
550.0000  -2.769601E+001  1.087437E+001 -1.929765E-001 -7.131440E+001 -1.809650E+001  3.888375E+001
-1.928462E-001 -7.131667E+001 -2.712643E+001  5.645137E+000 -4.642079E+001  1.361044E+002
-1.809786E+001  3.890426E+001 -4.642844E+001  1.358044E+002 -2.725803E+001  4.073211E+000
560.0000  -2.757678E+001  9.929582E+000 -1.941076E-001 -7.259438E+001 -1.796093E+001  3.799993E+001
-1.973388E-001 -7.260075E+001 -2.705824E+001  4.037488E+000 -4.638671E+001  1.336531E+002
-1.795607E+001  3.797265E+001 -4.645111E+001  1.334586E+002 -2.720108E+001  2.905430E+000
570.0000  -2.745675E+001  8.690081E+000 -1.973035E-001 -7.388538E+001 -1.781839E+001  3.706837E+001
-2.001077E-001 -7.388268E+001 -2.698689E+001  2.925514E+000 -4.636530E+001  1.311381E+002
-1.782094E+001  3.709067E+001 -4.633906E+001  1.310132E+002 -2.716516E+001  1.812492E+000
580.0000  -2.730449E+001  7.595304E+000 -2.007067E-001 -7.515661E+001 -1.768481E+001  3.618665E+001
-2.018992E-001 -7.516509E+001 -2.691218E+001  1.459498E+000 -4.638099E+001  1.287793E+002
-1.768303E+001  3.620614E+001 -4.632829E+001  1.287008E+002 -2.711907E+001  7.383920E-001
590.0000  -2.722487E+001  6.670924E+000 -2.041556E-001 -7.644282E+001 -1.755270E+001  3.530581E+001
-2.060509E-001 -7.644341E+001 -2.688807E+001  3.947975E-002 -4.635115E+001  1.264823E+002
-1.755112E+001  3.530012E+001 -4.630090E+001  1.261458E+002 -2.709645E+001 -2.466009E-001
600.0000  -2.714022E+001  5.717490E+000 -2.073402E-001 -7.772813E+001 -1.742004E+001  3.442331E+001
-2.090540E-001 -7.772842E+001 -2.684853E+001 -1.289831E+000 -4.633551E+001  1.241686E+002
-1.742177E+001  3.440592E+001 -4.629993E+001  1.239637E+002 -2.706855E+001 -1.477568E+000
610.0000  -2.701082E+001  5.230686E+000 -2.102246E-001 -7.901109E+001 -1.729370E+001  3.350610E+001
-2.111920E-001 -7.901492E+001 -2.681650E+001 -2.356443E+000 -4.635630E+001  1.225180E+002
-1.729275E+001  3.352021E+001 -4.629830E+001  1.220260E+002 -2.704643E+001 -2.536580E+000
620.0000  -2.693966E+001  4.493534E+000 -2.132896E-001 -8.029323E+001 -1.716865E+001  3.260835E+001
-2.156897E-001 -8.030618E+001 -2.678408E+001 -3.510919E+000 -4.628425E+001  1.201705E+002
-1.716625E+001  3.259953E+001 -4.626285E+001  1.205184E+002 -2.702980E+001 -3.675186E+000
630.0000  -2.685207E+001  3.997264E+000 -2.171910E-001 -8.157841E+001 -1.704770E+001  3.174720E+001
-2.181205E-001 -8.158391E+001 -2.678772E+001 -4.864923E+000 -4.634813E+001  1.182502E+002
-1.704742E+001  3.172696E+001 -4.637288E+001  1.179910E+002 -2.702312E+001 -4.799708E+000
640.0000  -2.680611E+001  3.249672E+000 -2.207327E-001 -8.285989E+001 -1.692379E+001  3.082023E+001
-2.213374E-001 -8.286710E+001 -2.676315E+001 -6.005804E+000 -4.641535E+001  1.156982E+002
-1.692681E+001  3.081195E+001 -4.636926E+001  1.164087E+002 -2.701287E+001 -5.898993E+000
650.0000  -2.679434E+001  2.902013E+000 -2.239181E-001 -8.413757E+001 -1.680912E+001  2.993028E+001
-2.234399E-001 -8.414400E+001 -2.675779E+001 -7.046316E+000 -4.637363E+001  1.139569E+002
-1.680875E+001  2.994354E+001 -4.637897E+001  1.143298E+002 -2.699497E+001 -7.036174E+000
660.0000  -2.675916E+001  1.963835E+000 -2.274217E-001 -8.542367E+001 -1.669647E+001  2.904034E+001
-2.279900E-001 -8.543536E+001 -2.670322E+001 -8.059121E+000 -4.642353E+001  1.123896E+002
-1.669597E+001  2.902832E+001 -4.629833E+001  1.123562E+002 -2.699112E+001 -8.066303E+000
670.0000  -2.677915E+001  1.049631E+000 -2.309239E-001 -8.670820E+001 -1.658087E+001  2.814162E+001
-2.322457E-001 -8.670147E+001 -2.664844E+001 -8.880008E+000 -4.623948E+001  1.112003E+002
-1.658463E+001  2.814066E+001 -4.626873E+001  1.110233E+002 -2.697864E+001 -9.245250E+000
680.0000  -2.680353E+001  2.043769E-001 -2.345839E-001 -8.798689E+001 -1.646971E+001  2.724512E+001
-2.352804E-001 -8.799014E+001 -2.659758E+001 -9.696490E+000 -4.623970E+001  1.095181E+002
-1.647002E+001  2.725018E+001 -4.622849E+001  1.091730E+002 -2.697184E+001 -1.034443E+001
690.0000  -2.681394E+001 -7.106575E-001 -2.391235E-001 -8.927097E+001 -1.635991E+001  2.632720E+001
-2.371089E-001 -8.927075E+001 -2.653760E+001 -1.083400E+001 -4.627098E+001  1.080343E+002
-1.636528E+001  2.635855E+001 -4.624458E+001  1.076857E+002 -2.695629E+001 -1.136885E+001
700.0000  -2.684696E+001 -1.828962E+000 -2.420794E-001 -9.054893E+001 -1.625510E+001  2.546554E+001
