#  HZ   S   DB   R     50.00 
! Rohde & Schwarz Vector Network Analyzer 
! Rohde-Schwarz,ZNA67-4Port,1332450064101810,2.73
! Created: UTC 6/16/2023, 7:30:54 AM
! freq[Hz]                db:S11                  ang:S11                 db:S12                  ang:S12                 db:S13                  ang:S13
!                         db:S21                  ang:S21                 db:S22                  ang:S22                 db:S23                  ang:S23
!                         db:S31                  ang:S31                 db:S32                  ang:S32                 db:S33                  ang:S33
! 
 1.000000000000000E5    -7.221245898248549      -1.200563189576750E2    -2.311578033366505      -9.556265832232295E1    -1.636409109229624E1    -7.179487587773953E1
                         5.886828917666539       4.030251454267607E1    -2.741543242286648       6.727871365688736E1    -1.061655918168133E1    -2.309831652042062E1
                         1.298267804594774      -5.393823104436573      -5.253260655216845      -1.585941622239000E2    -4.749056024890957       5.165376361224711E1

 5.022506265664160E7    -5.774101230524019E-1   -2.466360887419742E1    -2.757215280984844E1     9.497343428451069E1    -2.754926102363086E1     9.448778671380440E1
                        -2.758696241382139E1     9.522892423390161E1    -4.675088573400348E-1   -4.087615365236817E1    -1.461977893520365E1     4.982626490181636E1
                        -2.761046582051438E1     9.504111194925484E1    -1.470535498907056E1     5.039815870224854E1    -4.831084228911073E-1   -4.144681023277585E1

 1.003501253132832E8    -6.526294282929126E-1   -4.997127938899163E1    -3.590263346268660E1     1.288933043428833E2    -3.599692818935392E1     1.282190295809982E2
                        -3.584405441134674E1     1.294563358850869E2    -1.105863977232813      -7.260679776623796E1    -1.023753423000808E1     1.409200734925563E1
                        -3.600220336383640E1     1.297082603704650E2    -1.024183959795463E1     1.498655323271909E1    -1.132470887295484      -7.353739186461954E1

 1.504751879699248E8    -6.807931002090819E-1   -7.765812007611137E1    -3.201984588482025E1    -1.696667245611732E2    -3.213824294630924E1    -1.695197711745355E2
                        -3.200918880733634E1    -1.700988660381430E2    -1.872114665358819      -9.576524354547293E1    -8.578104693634472      -7.966154958057476
                        -3.208801376379176E1    -1.692931355282145E2    -8.510566959169765      -7.250525740880035      -1.888805970648320      -9.718615419658690E1

 2.006002506265664E8    -1.109914640912117      -9.834792840263418E1    -3.581143290926435E1    -5.658614779265715E1    -3.576358197384118E1    -5.796897079560137E1
                        -3.581080731259420E1    -5.807301102390146E1    -1.986934256745151      -1.167624011542165E2    -8.722539969276269      -3.157341934253128E1
                        -3.570465069155141E1    -5.876649638596318E1    -8.623772326971386      -3.103207087779638E1    -2.010860806447242      -1.186232451464911E2

 2.507253132832080E8    -1.905678487599391      -1.117010520369345E2    -3.034063647607300E1    -1.429684352880190E1    -3.064403789266838E1    -1.586233929397777E1
                        -3.038690851758215E1    -1.490913521052993E1    -2.241123429689933      -1.343914436067375E2    -9.117628334722642      -4.872694756465902E1
                        -3.060310591700083E1    -1.605088813862973E1    -9.014849724812890      -4.830611261458370E1    -2.248881576145225      -1.366835142313746E2

 3.008503759398496E8    -1.023917294919797      -1.271409209847760E2    -4.643984317165990E1     6.913539451343622E1    -5.040816092691437E1     5.400712252032310E1
                        -4.673136412150228E1     6.783328352326730E1    -2.451958065139053      -1.485311364980944E2    -9.144019071477189      -6.418904996284678E1
                        -5.059756869142308E1     5.239895970869289E1    -9.020517835427896      -6.392932422508007E1    -2.457067124714958      -1.514080384316898E2

 3.509754385964912E8    -1.670690164931783      -1.349012620388837E2    -4.094518871885122E1     9.849609320511991E1    -4.509879899558473E1     1.237624217012468E2
                        -4.104638853055885E1     9.910150855391772E1    -2.573578524830331      -1.585907149950407E2    -8.302821765536313      -7.947700190695367E1
                        -4.499087695357699E1     1.247579181535796E2    -8.179394226291283      -7.935513419798713E1    -2.637611059867344      -1.622999465800084E2

 4.011005012531328E8    -1.264531331604901      -1.490077338081545E2    -4.391304781375369E1     1.000017053130835E2    -5.070907667513261E1     1.146188594631564E2
                        -4.381630714050789E1     1.006578252713861E2    -2.867440622820847      -1.711529644580769E2    -8.257751179865416      -9.514268036156400E1
                        -5.003484459433675E1     1.158850002319209E2    -8.151099930547565      -9.517410111601799E1    -2.945029935119077      -1.755343348515236E2

 4.512255639097744E8    -1.426288970693444      -1.608846620113255E2    -4.725989831641474E1     1.812389442133809E1    -4.384022399551367E1    -2.073958972633633E1
                        -4.713871402751914E1     1.595359136349084E1    -3.440152483986660       1.773110519562138E2    -7.993002713004390      -1.112971622864569E2
                        -4.377048444450616E1    -2.082678643629992E1    -7.887277086999545      -1.113847735047534E2    -3.540604673132852       1.721782098615094E2

 5.013506265664160E8    -1.510415876771076      -1.706337072658116E2    -6.308482227295504E1     8.677452351733481E1    -3.883835185172293E1    -4.657003615261626E1
                        -7.084000197680483E1     3.622085438174763E1    -4.389714698667072       1.676687913987332E2    -7.522289515378623      -1.293104312700188E2
                        -3.880213537931652E1    -4.676083102550501E1    -7.420020839530225      -1.294235233345497E2    -4.583389258782881       1.613697743589087E2

 5.514756892230576E8    -1.873020320751504       1.787546406374810E2    -3.714532258297390E1     1.038824524081755E2    -3.518538573444498E1    -8.244324528774382E1
                        -3.734356277248732E1     1.043029240065630E2    -5.598091492005048       1.606029373278945E2    -7.200807373289862      -1.499057249216442E2
                        -3.537821321968830E1    -8.233943454960873E1    -7.105992025307760      -1.500947237105947E2    -5.965790461148147       1.539818760788261E2

 6.016007518796992E8    -2.289085551101258       1.721009706166151E2    -3.432884582568083E1     6.387640814434168E1    -3.509797397855649E1    -1.151471203760664E2
                        -3.456662593605839E1     6.471147246843795E1    -7.321713620442601       1.573819719067900E2    -6.626941425847005      -1.719396581148229E2
                        -3.525120536296887E1    -1.145220130158525E2    -6.542541175573184      -1.721691169614356E2    -7.882318249178758       1.512919356525533E2

 6.517258145363408E8    -2.511261538656213       1.647211116408778E2    -3.416041565898957E1     1.834955357253277E1    -3.903008110344626E1    -1.371992825872828E2
                        -3.434286651138905E1     1.902358871590149E1    -8.770822699976371       1.714818658249459E2    -6.352030590841710       1.587074367579633E2
                        -3.909635419474394E1    -1.369833276154491E2    -6.266303638937689       1.585636927600406E2    -9.278189990198584       1.665023897949012E2

 7.018508771929824E8    -2.407134261755835       1.583794289627022E2    -3.654013059715775E1     5.673925233753764      -4.234593420475928E1    -5.595010550629220E1
                        -3.681582413252988E1     5.823930711088381      -6.218632867797277      -1.789733695252469E2    -7.471061849532219       1.262955463573102E2
                        -4.236021784123498E1    -5.582578039467069E1    -7.371335236267344       1.261709046170146E2    -6.532520453081176       1.745378551632039E2

 7.519759398496240E8    -3.021908064723717       1.510570690540993E2    -3.433735183694499E1     8.099598920920668      -3.435987912312255E1    -2.380612838243696E1
                        -3.462126344534038E1     8.557242905621372      -4.140701753767963       1.714544441750417E2    -9.603709842554091       9.810477305247008E1
                        -3.446208911059092E1    -2.353018340709636E1    -9.492001675703538       9.784292315073745E1    -4.545870442284900       1.628632698418619E2

 8.021010025062656E8    -2.948241568079421       1.395448276298972E2    -3.127501094626869E1    -4.935124664711005      -2.607392592213931E1    -2.660292853985073E1
                        -3.164718878675483E1    -3.868639412558816      -3.303834496531213       1.585435785179270E2    -1.190263239687305E1     7.418715773392795E1
                        -2.629491068358064E1    -2.636193420653102E1    -1.178871561883464E1     7.380222015821053E1    -3.934202856671333       1.474838900555474E2

 8.522260651629072E8    -3.941212820784869       1.275793848768001E2    -2.820047206293717E1    -2.501020936721526E1    -1.935273305571532E1    -3.368766719303120E1
                        -2.860160799468132E1    -2.338606397641359E1    -3.115332559708523       1.459951568926211E2    -1.409016070160949E1     5.033652760757013E1
                        -1.962812580745947E1    -3.285585570705988E1    -1.399710254990220E1     4.984036812158417E1    -4.335660502311619       1.316750818394436E2

 9.023511278195488E8    -5.898373979764414       1.175127845408771E2    -2.568066345524056E1    -5.548348010613387E1    -1.338354065059254E1    -5.334865693518513E1
                        -2.607530537290771E1    -5.295320749818906E1    -3.218728747612081       1.341664754152298E2    -1.671941654854106E1     2.544501810693753E1
                        -1.368296481443498E1    -5.179461364550122E1    -1.665357172920518E1     2.489459060452741E1    -5.786724718389834       1.181813226893045E2

 9.524761904761904E8    -8.643707677534808       1.190730654722908E2    -2.419993851585141E1    -9.202465946418886E1    -8.772701021991546      -8.110249672779312E1
                        -2.446486795388093E1    -8.861044404131827E1    -3.535297481542348       1.221290292685953E2    -2.025940944813574E1    -9.439676808148213E-1
                        -8.949697451416640      -7.863528263798922E1    -2.020654399718293E1    -1.423178656269181      -8.471980813562501       1.160898675191911E2

 1.002601253132832E9    -9.022338393958035       1.368334640422754E2    -2.484718132020530E1    -1.318729793721156E2    -6.517328550764608      -1.121145724880213E2
                        -2.495032615891765E1    -1.287823737062108E2    -4.117875917326361       1.095216036557581E2    -2.499147370139245E1    -1.869705769083031E1
                        -6.522952935446606      -1.100683742343373E2    -2.493728805783323E1    -1.912722468018729E1    -8.557335060254662       1.267941431672322E2

 1.052726315789474E9    -7.151554816684875       1.368945223911928E2    -2.650604435858009E1    -1.610727953208781E2    -5.606615099018205      -1.354836315347194E2
                        -2.654601983982193E1    -1.583931565456034E2    -5.009358896171390       9.663162320487010E1    -2.942335601217912E1    -2.350828631997999E1
                        -5.572188035073317      -1.340224020232197E2    -2.937524727250376E1    -2.402114967981563E1    -7.171157597953447       1.233675600704206E2

 1.102851378446115E9    -6.435280755157517       1.287005755663801E2    -2.840507777554781E1     1.739016749975514E2    -5.070917652562565      -1.532144559332937E2
                        -2.842424409325030E1     1.763810719366971E2    -6.258141148903351       8.350430527793254E1    -3.195281658243610E1    -2.822166080149480E1
                        -5.046692227731276      -1.521413069943300E2    -3.192375581298924E1    -2.879723183741356E1    -6.652429564076011       1.127176341973389E2

 1.152976441102757E9    -6.384974181347729       1.196370794225800E2    -3.020663927935782E1     1.537517602372749E2    -4.581361156117624      -1.673250735069453E2
                        -3.021279891188303E1     1.560152148463725E2    -7.878345380103364       7.031004433838307E1    -3.408770288272010E1    -3.888724242687133E1
                        -4.573322663065170      -1.665031817456095E2    -3.408343720739322E1    -3.949773956925700E1    -6.751277028319805       1.011227368332820E2

 1.203101503759398E9    -6.766717239030381       1.106263590140710E2    -3.151512463541633E1     1.360243785548356E2    -4.088194543195065      -1.795712229521720E2
                        -3.153273518758092E1     1.384534494659267E2    -9.930389223982207       5.693497774381678E1    -3.663270486328897E1    -5.388638188165299E1
                        -4.099303240043955      -1.787492636416564E2    -3.667896559696313E1    -5.450916573029537E1    -7.217974635699376       8.938840867977581E1

 1.253226566416040E9    -7.504100879799015       1.024900458398542E2    -3.212156316215239E1     1.144912104683200E2    -3.627035572113936       1.693718000445066E2
                        -3.212539636835763E1     1.176377883203191E2    -1.248610414600694E1     4.312248983344731E1    -3.989689947675348E1    -7.505510140501542E1
                        -3.657542998411050       1.701533215660805E2    -4.005594336832979E1    -7.526283328924558E1    -7.939024081752803       7.744158317614129E1

 1.303351629072682E9    -8.508544294551848       9.627443851144115E1    -3.401183675182998E1     8.392929813391288E1    -3.217344221795900       1.595239824980336E2
                        -3.365307439805320E1     8.761223899046233E1    -1.559833678157759E1     2.799293009048650E1    -4.695313398394952E1    -8.249724507392114E1
                        -3.268958297362694       1.603290533617785E2    -4.705934831922264E1    -7.930907396828302E1    -8.910503271459152       6.497480196766591E1

 1.353476691729323E9    -9.386568940542992       9.094322388282784E1    -3.808084792734063E1     6.471393115909294E1    -2.766512672378743       1.501923924726513E2
                        -3.764638180679443E1     6.545592918840714E1    -1.923697340031445E1     7.416138365317041      -4.742408363109697E1    -5.859636990655537E1
                        -2.817131218834842       1.511334191690324E2    -4.713984621554204E1    -5.831092533311274E1    -1.019932658650165E1     5.231128604060979E1

 1.403601754385965E9    -1.046081918215413E1     8.513002624856694E1    -4.112418845974888E1     5.818841453082717E1    -2.379703983421494       1.411024766270632E2
                        -4.094414144529694E1     5.821102458450687E1    -2.299997530130545E1    -2.753606357508111E1    -4.718574092905160E1    -7.299348366900759E1
                        -2.418669803893505       1.419741629599392E2    -4.703614850290563E1    -7.333722029885801E1    -1.168648091522543E1     3.934331682908817E1

 1.453726817042606E9    -1.178237552607216E1     8.068995167352706E1    -4.318011211964362E1     5.239853931511227E1    -2.071924499578237       1.323968433011331E2
                        -4.312856643026497E1     5.265323881092995E1    -2.376941457784465E1    -7.659978422837411E1    -4.828312686870244E1    -9.189031045505853E1
                        -2.109059662397836       1.333161586213783E2    -4.818178994042916E1    -9.218625975515772E1    -1.340065731827501E1     2.550238024794228E1

 1.503851879699248E9    -1.319093980926115E1     7.777810443382018E1    -4.475108538326189E1     4.678824619198121E1    -1.833344020339876       1.241946625131520E2
                        -4.473384523391441E1     4.737622817299135E1    -2.140149140668254E1    -1.112256081335295E2    -4.955872419554730E1    -1.094660540294371E2
                        -1.863868355469265       1.252392142165833E2    -4.949555950667825E1    -1.095700741621421E2    -1.523920554598616E1     1.027734399772717E1

 1.553976942355890E9    -1.470366640082657E1     7.614431957803431E1    -4.604795303213955E1     4.059621352578777E1    -1.644619613608482       1.165808332549854E2
                        -4.603688980100387E1     4.138444682034483E1    -1.906598111720353E1    -1.303382822927528E2    -5.056560811921518E1    -1.262173364647968E2
                        -1.665514393670704       1.176151413193140E2    -5.054295622273168E1    -1.262051639115899E2    -1.716933847315898E1    -7.418993997012309

 1.604102005012531E9    -1.638119046100248E1     7.666465210105743E1    -4.715179465506914E1     3.448506939956581E1    -1.487151542532331       1.094770504418622E2
                        -4.714854816782178E1     3.544336297165886E1    -1.731860681725047E1    -1.423481107736607E2    -5.131428431447326E1    -1.419267183438958E2
                        -1.496685150833516       1.104708953767022E2    -5.129520817505966E1    -1.414136891808421E2    -1.899291424581824E1    -2.831391700931210E1

 1.654227067669173E9    -1.789882879972151E1     8.044470900283989E1    -4.805417237874917E1     2.871764523852636E1    -1.364697407178607       1.028137296390003E2
                        -4.805485296109759E1     2.970615358078232E1    -1.602816400391298E1    -1.511435061076335E2    -5.181262725011094E1    -1.560056105674660E2
                        -1.367937997131717       1.037789835821250E2    -5.184630217820391E1    -1.556604035959039E2    -2.021071118985378E1    -5.182575691167740E1

 1.704352130325814E9    -1.912406299298068E1     8.612315571372196E1    -4.889810873367973E1     2.228354481029641E1    -1.279092703391536       9.648819969657242E1
                        -4.890169718423336E1     2.357245269829468E1    -1.507299529473665E1    -1.581763669202849E2    -5.211879794447316E1    -1.680935362659508E2
                        -1.272655034145256       9.744500343843733E1    -5.213115341844826E1    -1.683392349267300E2    -2.076920506427318E1    -7.641892684104755E1

 1.754477192982456E9    -2.010318238195803E1     9.363362223147932E1    -4.958774832372506E1     1.699909956681934E1    -1.203118646367989       9.049335596920650E1
                        -4.958176732150982E1     1.815524952865792E1    -1.434507676395904E1    -1.639709587997075E2    -5.233783279840264E1    -1.796963140082565E2
                        -1.195357184295247       9.144342411024445E1    -5.227164084492966E1    -1.794997790269484E2    -2.046756178644363E1    -9.933508079869056E1

 1.804602255639098E9    -2.065211142712579E1     1.014500474039809E2    -5.028390771580739E1     1.151761604131844E1    -1.135818852050207       8.506258135315562E1
                        -5.024418557401523E1     1.265482467196117E1    -1.377671855704913E1    -1.690967888131750E2    -5.251964445373802E1     1.702959949374583E2
                        -1.119583251830435       8.594699339243954E1    -5.246837317784685E1     1.707103562823268E2    -1.983010678928672E1    -1.163067384476447E2

 1.854727318295739E9    -2.056008974434560E1     1.076208146259366E2    -5.090727563610823E1     6.315737063028282      -1.092682018310432       7.998576312511889E1
                        -5.081535507357682E1     7.282172969309056      -1.334306635299941E1    -1.736060111201467E2    -5.259888665365162E1     1.626841690157514E2
                        -1.062961872240538       8.075577806622478E1    -5.261960263719217E1     1.626772766862635E2    -1.922504244096285E1    -1.295116490268443E2

 1.904852380952381E9    -2.041244800864229E1     1.119782014819471E2    -5.139609459820161E1     1.736167637066410      -1.060365449916538       7.491813665691969E1
                        -5.131368793744383E1     2.658561007411971      -1.299396481735105E1    -1.776780712672540E2    -5.253668258770798E1     1.560082362195630E2
                        -1.031446366248323       7.571515864749593E1    -5.246870839096886E1     1.554041556880257E2    -1.860056533688659E1    -1.415676915002964E2

