#  HZ   S   RI   R     50.00 
! Rohde & Schwarz Vector Network Analyzer 
! Rohde-Schwarz,ZNA67-4Port,1332450064101810,2.73
! Created: UTC 3/3/2026, 2:32:10 PM
! freq[Hz]                re:S11                  im:S11
 1.000000000000000E8     1.523874614851492E-2   -6.153309624239406E-3
 1.399000000000000E8    -8.757264862000722E-3   -2.208136930537903E-3
 1.798000000000000E8     1.206139763712664E-2    2.820953539027400E-3
 2.197000000000000E8     4.984611004190675E-4   -1.351232382651092E-2
 2.596000000000000E8     1.710533726526312E-3    7.990976021776147E-3
 2.995000000000000E8     1.394436032386341E-2   -1.448894201788585E-2
 3.394000000000000E8    -8.992612993803134E-3    3.319916442276076E-3
 3.793000000000000E8     1.778977140449569E-2   -7.267254678576814E-3
 4.192000000000000E8    -7.812285575663908E-3   -8.714403381940655E-3
 4.591000000000000E8     8.191464582412711E-3    1.995162306303200E-3
 4.990000000000000E8     6.477728064182071E-3   -1.868472668594206E-2
 5.389000000000000E8    -6.149333112827976E-3    1.846759230920945E-3
 5.788000000000000E8     2.163590355541696E-2   -1.626008547285013E-2
 6.187000000000000E8    -1.506043976428918E-2   -5.809784344052698E-3
 6.586000000000000E8     2.403256790988359E-2   -4.761894618933130E-3
 6.985000000000000E8    -1.150529145824022E-2   -1.694007265095939E-2
 7.384000000000000E8     1.012147203766872E-2    1.879888289886715E-3
 7.783000000000000E8     4.727217482761861E-3   -2.423672863381651E-2
 8.182000000000000E8    -6.623637373956492E-3   -1.428587541665895E-3
 8.581000000000000E8     2.139342556824705E-2   -1.950077201921897E-2
 8.980000000000000E8    -1.620104477323861E-2   -1.247252610589451E-2
 9.379000000000000E8     2.523968244972045E-2   -9.514994368162347E-3
 9.778000000000000E8    -1.034680176322464E-2   -2.172275156698640E-2
 1.017700000000000E9     1.259157154596538E-2   -2.682549541275267E-3
 1.057600000000000E9     2.090065800544324E-3   -2.307815753122114E-2
 1.097500000000000E9    -4.155313329884659E-3   -1.207165632068095E-2
 1.137400000000000E9     1.593957259880873E-2   -1.577903919749715E-2
 1.177300000000000E9    -9.237303729953853E-3   -2.379163619808917E-2
 1.217200000000000E9     1.328830686916977E-2   -7.122045761364999E-3
 1.257100000000000E9     2.253001609729660E-3   -3.236876081494824E-2
 1.297000000000000E9     9.117286340627334E-4   -5.633761947221282E-3
 1.336900000000000E9     1.699539269237526E-2   -2.448202155636690E-2
 1.376800000000000E9    -1.808754461320970E-2   -1.781040960578170E-2
 1.416700000000000E9     2.554142238223643E-2   -1.385951252504181E-2
 1.456600000000000E9    -1.833277306813463E-2   -3.656531230477744E-2
 1.496500000000000E9     2.095825711922280E-2   -1.725745437828427E-3
 1.536400000000000E9    -7.031185299072928E-3   -4.402455942097057E-2
 1.576300000000000E9     1.303561292260544E-3   -8.158701877561209E-3
 1.616200000000000E9     2.030671834558444E-2   -3.677078536162290E-2
 1.656100000000000E9    -1.782323038297581E-2   -1.521238484714832E-2
 1.696000000000000E9     2.566926530806461E-2   -2.094398746406283E-2
 1.735900000000000E9    -2.511449579019945E-2   -3.786119142519981E-2
 1.775800000000000E9     2.947129939781253E-2   -1.167869639506927E-2
 1.815700000000000E9    -1.941373009146100E-2   -3.748637341682139E-2
 1.855600000000000E9     9.546917227136457E-3   -2.103746089707789E-2
 1.895500000000000E9    -1.874855069189559E-3   -3.210575755823361E-2
 1.935400000000000E9     4.092035346675418E-3   -4.070125499346804E-2
 1.975300000000000E9     1.024492359298963E-2   -6.920929395414041E-3
 2.015200000000000E9    -5.716968326646595E-3   -5.080328168641392E-2
 2.055100000000000E9     3.700548264739208E-3   -6.571452596151800E-3
 2.095000000000000E9     6.518962964151082E-3   -4.902012555116751E-2
 2.134900000000000E9    -7.342851242761114E-3   -1.800190330285485E-2
 2.174800000000000E9     3.355699079963539E-3   -2.718777686058838E-2
 2.214700000000000E9    -1.043097753800624E-2   -5.450594641043637E-2
 2.254600000000000E9     7.770290348939821E-4   -9.911225071539702E-3
 2.294500000000000E9    -1.264538010583668E-3   -6.393850955018554E-2
 2.334400000000000E9    -1.246826979907756E-2   -8.368506592813518E-4
 2.374300000000000E9     4.860150430940586E-3   -6.215913120046222E-2
 2.414200000000000E9    -1.812646604244292E-2   -1.886790940036504E-2
 2.454100000000000E9     1.010070325725992E-2   -3.663405667051349E-2
 2.494000000000000E9    -2.263041176587513E-2   -4.667733917885670E-2
 2.533900000000000E9     3.070143212369841E-3   -1.896023365962064E-2
 2.573800000000000E9    -6.281375470234184E-3   -7.041516455077917E-2
 2.613700000000000E9    -7.093260566631392E-3   -5.994436615748982E-3
 2.653600000000000E9     3.393506433546745E-3   -6.516138347153580E-2
 2.693500000000000E9    -1.822205630788646E-2   -2.341666000433894E-2
 2.733400000000000E9     8.549523395316179E-3   -4.480233906794123E-2
 2.773300000000000E9    -1.430665125297133E-2   -4.957928562917317E-2
 2.813200000000000E9    -3.204673714577557E-3   -1.971427530259209E-2
 2.853100000000000E9    -3.159372977315195E-3   -7.171457926559080E-2
 2.893000000000000E9    -1.503196809637315E-2   -1.658939542619936E-2
 2.932900000000000E9     9.082207758871946E-3   -6.684961628345243E-2
 2.972800000000000E9    -2.011561406968294E-2   -3.182632736462748E-2
 3.012700000000000E9     4.837093982166460E-3   -4.541169052654893E-2
 3.052600000000000E9    -1.011963366857493E-2   -5.965295377989423E-2
 3.092500000000000E9    -1.045521958898244E-2   -2.399782846934620E-2
 3.132400000000000E9     7.043277854043455E-3   -7.334965474599500E-2
 3.172300000000000E9    -2.789035743633846E-2   -2.157201651137365E-2
 3.212200000000000E9     1.590173392783779E-2   -6.588082890836898E-2
 3.252100000000000E9    -3.020570397326449E-2   -4.104335653932518E-2
 3.292000000000000E9     7.531430921430528E-3   -4.484119760723142E-2
 3.331900000000000E9    -1.229846113209882E-2   -6.664430568479815E-2
 3.371800000000000E9    -1.430024956339159E-2   -2.645803812958213E-2
 3.411700000000000E9     1.170954104380192E-2   -7.763510748019536E-2
 3.451600000000000E9    -3.427560600273957E-2   -2.607719507504182E-2
 3.491500000000000E9     2.186704901647976E-2   -6.687088968021583E-2
 3.531400000000000E9    -3.768574536021309E-2   -4.624432931638663E-2
 3.571300000000000E9     9.831606777625429E-3   -4.840713320815997E-2
 3.611200000000000E9    -1.693552115304593E-2   -6.979483631531189E-2
 3.651100000000000E9    -1.551880721171119E-2   -3.447825307473565E-2
 3.691000000000000E9     1.096393864722042E-2   -7.796095893947039E-2
 3.730900000000000E9    -3.648296893251091E-2   -3.622271524087765E-2
 3.770800000000000E9     2.076475822611996E-2   -6.572850546064271E-2
 3.810700000000000E9    -3.712103266784868E-2   -5.403399969315656E-2
 3.850600000000000E9     6.015781627555204E-3   -4.871579891677112E-2
 3.890500000000000E9    -1.412837323013628E-2   -7.244830553200247E-2
 3.930400000000000E9    -2.246389365335015E-2   -4.186007171597311E-2
 3.970300000000000E9     1.536516306498091E-2   -7.382228275743807E-2
 4.010200000000000E9    -4.340307321841681E-2   -5.078419936579012E-2
 4.050100000000000E9     2.453330116925385E-2   -5.700767697633218E-2
 4.090000000000000E9    -4.215240451730240E-2   -7.059550404913970E-2
 4.129900000000000E9     6.889770883613720E-3   -4.257808163296883E-2
 4.169800000000000E9    -1.444407334799533E-2   -8.299415834791428E-2
 4.209700000000000E9    -2.494779465342523E-2   -4.084368152424317E-2
 4.249600000000000E9     1.701514181889006E-2   -7.617361781467342E-2
 4.289500000000000E9    -4.978400551677949E-2   -5.657167224947965E-2
 4.329400000000000E9     2.737885031255363E-2   -5.874914670357383E-2
 4.369300000000000E9    -4.753709582393002E-2   -7.757467926301850E-2
 4.409200000000000E9     1.056977610467429E-2   -4.400279903584920E-2
 4.449100000000000E9    -2.044804556595279E-2   -8.645457504188450E-2
 4.489000000000000E9    -2.089261237640291E-2   -4.845845684270496E-2
 4.528900000000000E9     1.014584358015802E-2   -7.535227577326259E-2
 4.568800000000000E9    -4.450158139759108E-2   -6.528623473848724E-2
 4.608700000000000E9     1.567178642633493E-2   -5.696751867585780E-2
 4.648600000000000E9    -4.117035237778796E-2   -8.825649470461547E-2
 4.688500000000000E9     2.862474990063188E-4   -4.735364979451676E-2
 4.728400000000000E9    -1.407795470007085E-2   -9.119160451341722E-2
 4.768300000000000E9    -2.717399422017150E-2   -5.575316414939444E-2
 4.808200000000000E9     1.021983582932877E-2   -7.442685247814666E-2
 4.848100000000000E9    -4.457803515441643E-2   -7.829289393564803E-2
 4.888000000000000E9     1.187042962224622E-2   -5.041408130120387E-2
 4.927900000000000E9    -3.941318933253438E-2   -9.884936174298026E-2
 4.967800000000000E9    -6.136853410820289E-3   -4.515506866965849E-2
 5.007700000000000E9    -1.356511618735658E-2   -1.005102238125331E-1
 5.047600000000000E9    -2.927028897161283E-2   -5.928485392213888E-2
 5.087500000000000E9     7.352143261469241E-3   -7.689676521126182E-2
 5.127400000000000E9    -4.266357939694393E-2   -8.553308388306451E-2
 5.167300000000000E9     7.779135681234096E-3   -5.211229187769452E-2
 5.207200000000000E9    -3.601650954646744E-2   -1.040464502427662E-1
 5.247100000000000E9    -1.234811642641749E-2   -4.836759271294090E-2
 5.287000000000000E9    -1.402169173123148E-2   -1.003995388480716E-1
 5.326900000000000E9    -3.228508562902795E-2   -6.628035834805113E-2
 5.366800000000000E9    -9.625815340322252E-6   -7.700552602306499E-2
 5.406700000000000E9    -3.715558403876392E-2   -9.471924509717518E-2
 5.446600000000000E9    -4.846634615019555E-3   -5.221670851579761E-2
 5.486500000000000E9    -2.622868948267814E-2   -1.104967363781468E-1
 5.526400000000000E9    -2.346510028725858E-2   -5.024554804882801E-2
 5.566300000000000E9    -9.365030184548609E-3   -1.019358603323565E-1
 5.606200000000000E9    -3.849207081527475E-2   -7.324055219826725E-2
 5.646100000000000E9    -3.307524777772341E-3   -7.476756862589136E-2
 5.686000000000000E9    -3.718715700244812E-2   -1.043418195457671E-1
 5.725900000000000E9    -1.418018664657485E-2   -5.396167888733035E-2
 5.765800000000000E9    -1.783914328508695E-2   -1.179201823365534E-1
 5.805700000000000E9    -3.448270076814455E-2   -5.185060914983803E-2
 5.845600000000000E9    -4.042043977899423E-3   -1.059242419747035E-1
 5.885500000000000E9    -4.595835648770911E-2   -7.670376605763865E-2
 5.925400000000000E9    -5.049362671266277E-3   -7.757479175957283E-2
 5.965300000000000E9    -3.715674722718881E-2   -1.087529970186126E-1
 6.005200000000000E9    -2.276119892644906E-2   -5.661005192132830E-2
 6.045100000000000E9    -1.569757352887945E-2   -1.232060859865207E-1
 6.085000000000000E9    -4.178086725234911E-2   -5.875257533404036E-2
 6.124900000000000E9     3.359417948182869E-4   -1.064479358794494E-1
 6.164800000000000E9    -5.073352251888302E-2   -8.211633688959830E-2
 6.204700000000000E9    -7.738291171583218E-3   -8.024094202285868E-2
 6.244600000000000E9    -3.513154944883608E-2   -1.122564972639079E-1
 6.284500000000000E9    -3.040380170972784E-2   -6.146923508306745E-2
 6.324400000000000E9    -1.177535810914992E-2   -1.234792557660847E-1
 6.364300000000000E9    -5.034079919277965E-2   -6.878018059749622E-2
 6.404200000000000E9     2.196409435361063E-3   -1.063655059914983E-1
 6.444100000000000E9    -5.343570467958589E-2   -9.365383884324778E-2
 6.484000000000000E9    -8.565110096446791E-3   -7.946577924910934E-2
 6.523900000000000E9    -3.391082086848596E-2   -1.163048757710291E-1
 6.563800000000000E9    -3.807199108856600E-2   -6.699701447688711E-2
 6.603700000000000E9    -5.572512681643174E-3   -1.221297833556938E-1
 6.643600000000000E9    -6.105793264097081E-2   -7.573661177737467E-2
 6.683500000000000E9     4.961490024470785E-3   -1.050836417425101E-1
 6.723400000000000E9    -5.913206350825582E-2   -1.013724730295665E-1
 6.763300000000000E9    -9.817399968485886E-3   -8.257525616646075E-2
 6.803200000000000E9    -3.509689920607580E-2   -1.217512387609522E-1
 6.843100000000000E9    -3.934852579932727E-2   -7.172815501678578E-2
 6.883000000000000E9    -6.762511727803004E-3   -1.190326374754705E-1
 6.922900000000000E9    -6.416985395239638E-2   -8.408396603386421E-2
 6.962800000000000E9     5.525145922421343E-4   -1.035300556785796E-1
 7.002700000000000E9    -6.156061451764193E-2   -1.075253272039921E-1
 7.042600000000000E9    -1.566486906854033E-2   -8.459474406011103E-2
 7.082500000000000E9    -3.632456379513437E-2   -1.215728990141665E-1
 7.122400000000000E9    -4.475225431431405E-2   -8.368924446113472E-2
 7.162300000000000E9    -8.132746705311738E-3   -1.144625634638325E-1
 7.202200000000000E9    -6.491383760540884E-2   -9.677404917996958E-2
 7.242100000000000E9    -4.819191483914329E-3   -9.425552253628536E-2
 7.282000000000000E9    -6.213907259512279E-2   -1.182180831596102E-1
 7.321900000000000E9    -2.515630308681169E-2   -8.528509338210827E-2
 7.361800000000000E9    -3.304633167817234E-2   -1.239607810634353E-1
 7.401700000000000E9    -5.518339854883980E-2   -8.972106179732643E-2
 7.441600000000000E9    -8.587333729041323E-3   -1.117684621517087E-1
 7.481500000000000E9    -7.140987306760835E-2   -1.103859001081136E-1
 7.521400000000000E9    -5.611241800505529E-3   -8.945640799951979E-2
 7.561300000000000E9    -6.255455065845744E-2   -1.274932189289102E-1
 7.601200000000000E9    -3.197383565850732E-2   -8.193720198327187E-2
 7.641100000000000E9    -3.580226709783121E-2   -1.307205734721487E-1
 7.681000000000000E9    -5.838387404405303E-2   -9.502757826702996E-2
 7.720900000000000E9    -1.125519171061433E-2   -1.079152901299632E-1
 7.760800000000000E9    -7.444658999231236E-2   -1.194255299256309E-1
 7.800700000000000E9    -1.252344874300344E-2   -8.820811155639663E-2
 7.840600000000000E9    -6.144257280459849E-2   -1.370172197287335E-1
 7.880500000000000E9    -3.417070664967528E-2   -8.297280347415280E-2
 7.920400000000000E9    -3.773266182817513E-2   -1.307690431439203E-1
 7.960300000000000E9    -6.297082592882043E-2   -1.016861953177467E-1
 8.000200000000000E9    -1.701773946288301E-2   -1.109504207915799E-1
 8.040100000000000E9    -6.783827151229915E-2   -1.275872337798890E-1
 8.080000000000000E9    -2.403414150053251E-2   -8.506659485452300E-2
 8.119900000000000E9    -5.788958607573984E-2   -1.448265718549957E-1
 8.159800000000000E9    -4.455974228885479E-2   -8.672409568087229E-2
 8.199700000000000E9    -3.236679488041021E-2   -1.352557910638713E-1
 8.239600000000000E9    -6.620607789655128E-2   -1.056847501337476E-1
 8.279500000000000E9    -2.390657698189572E-2   -1.064958892557488E-1
 8.319400000000000E9    -6.937483591549168E-2   -1.385320150709484E-1
 8.359300000000000E9    -3.054009652667636E-2   -8.721476310974241E-2
 8.399200000000000E9    -5.055104749337626E-2   -1.471764388683664E-1
 8.439100000000000E9    -5.827368658297112E-2   -8.831168759476182E-2
 8.479000000000000E9    -3.075909698270431E-2   -1.380720214592757E-1
 8.518900000000000E9    -6.980069760794387E-2   -1.151170035243642E-1
 8.558800000000000E9    -2.426833662214229E-2   -1.063760787214671E-1
 8.598700000000000E9    -6.778395659220186E-2   -1.415068079717051E-1
 8.638600000000000E9    -4.301551947933907E-2   -8.844975755381472E-2
 8.678500000000000E9    -4.768502352789963E-2   -1.553247728909051E-1
 8.718400000000000E9    -6.255913859197154E-2   -9.407352637397952E-2
 8.758300000000000E9    -3.007546601863743E-2   -1.346964254890260E-1
 8.798200000000000E9    -7.520136241775296E-2   -1.219157638627040E-1
 8.838100000000000E9    -3.388133739379265E-2   -1.109029182195939E-1
 8.878000000000000E9    -5.876487018072856E-2   -1.496381140222305E-1
 8.917900000000000E9    -5.218130162302234E-2   -8.832740218235233E-2
 8.957800000000000E9    -4.264742461505041E-2   -1.548184295912224E-1
 8.997700000000000E9    -7.508726933236681E-2   -1.025675577370695E-1
 9.037600000000000E9    -2.748115588544901E-2   -1.387023422023347E-1
 9.077500000000000E9    -7.505135386661557E-2   -1.279288417328394E-1
 9.117400000000000E9    -4.253153501078752E-2   -1.084439830476017E-1
 9.157300000000000E9    -5.928990511429766E-2   -1.567710964269950E-1
 9.197200000000000E9    -6.545372111202347E-2   -9.751516726299073E-2
 9.237100000000000E9    -3.161557431334790E-2   -1.560010984760822E-1
 9.277000000000000E9    -8.823513352947734E-2   -1.048712467575864E-1
 9.316900000000000E9    -2.933906478212093E-2   -1.365226743094395E-1
 9.356800000000000E9    -8.449293553253245E-2   -1.386104141519552E-1
 9.396700000000000E9    -4.119511552180270E-2   -1.089895140734335E-1
 9.436600000000000E9    -6.092210490954356E-2   -1.565766287582772E-1
 9.476500000000000E9    -7.559425658471865E-2   -1.015547680646177E-1
 9.516400000000000E9    -3.225846406148935E-2   -1.587420924589253E-1
 9.556300000000000E9    -9.329741834856173E-2   -1.147134027447014E-1
 9.596200000000000E9    -2.731557414231388E-2   -1.323666829956742E-1
 9.636100000000000E9    -9.202728758076269E-2   -1.425772155332859E-1
 9.676000000000000E9    -4.958581245048316E-2   -1.127863869350585E-1
 9.715900000000000E9    -6.105276214475892E-2   -1.619604363468932E-1
 9.755800000000000E9    -7.816476751556231E-2   -1.052881867609033E-1
 9.795700000000000E9    -3.853364684437229E-2   -1.516491280169331E-1
 9.835600000000000E9    -9.956438250164978E-2   -1.270914507143869E-1
 9.875500000000000E9    -3.004197444426967E-2   -1.297712890737219E-1
 9.915400000000000E9    -9.092863848047482E-2   -1.484749791770399E-1
 9.955300000000000E9    -5.736859722027984E-2   -1.107196008562872E-1
 9.995200000000000E9    -6.255302132931942E-2   -1.643233978001602E-1
 1.003510000000000E+10  -8.642664391316277E-2   -1.129907578241823E-1
 1.007500000000000E+10  -3.536686914183849E-2   -1.490773232767173E-1
 1.011490000000000E+10  -1.048599920710514E-1   -1.315074596981357E-1
 1.015480000000000E+10  -3.889431390377136E-2   -1.283958113768942E-1
 1.019470000000000E+10  -9.155192918137195E-2   -1.571068754615093E-1
 1.023460000000000E+10  -6.163920210892007E-2   -1.117805353734185E-1
 1.027450000000000E+10  -6.529017251422919E-2   -1.613254996198570E-1
 1.031440000000000E+10  -9.304911417414172E-2   -1.224841489130783E-1
 1.035430000000000E+10  -3.933283266283057E-2   -1.460531932174339E-1
 1.039420000000000E+10  -1.059688408147800E-1   -1.412358208158641E-1
 1.043410000000000E+10  -4.546038869845101E-2   -1.219341408405568E-1
 1.047400000000000E+10  -9.590040760158386E-2   -1.637594797830011E-1
 1.051390000000000E+10  -6.788911996359442E-2   -1.168730152330535E-1
 1.055380000000000E+10  -6.541586748271677E-2   -1.583006347067960E-1
 1.059370000000000E+10  -9.854850598881913E-2   -1.287492191443021E-1
 1.063360000000000E+10  -4.935291165348858E-2   -1.391781484034465E-1
 1.067350000000000E+10  -1.053897787737403E-1   -1.572347894620390E-1
 1.071340000000000E+10  -5.195161256937481E-2   -1.151898703918220E-1
 1.075330000000000E+10  -9.194052760955335E-2   -1.679042465415411E-1
 1.079320000000000E+10  -8.087770017995920E-2   -1.181598208767745E-1
 1.083310000000000E+10  -6.551492918960607E-2   -1.623018247025946E-1
 1.087300000000000E+10  -1.009233651403907E-1   -1.373012959330517E-1
 1.091290000000000E+10  -5.534751860233414E-2   -1.332764863938528E-1
 1.095280000000000E+10  -1.064482040423278E-1   -1.655791443724202E-1
 1.099270000000000E+10  -6.649524866816936E-2   -1.156138728309757E-1
 1.103260000000000E+10  -8.465419916187943E-2   -1.755646053715949E-1
 1.107250000000000E+10  -9.163127341453001E-2   -1.154762932144848E-1
 1.111240000000000E+10  -6.586928838451928E-2   -1.612953951193630E-1
 1.115230000000000E+10  -1.085518545233946E-1   -1.454218742535375E-1
 1.119220000000000E+10  -5.643528944678994E-2   -1.333415667474798E-1
 1.123210000000000E+10  -1.030668787709722E-1   -1.692334177448991E-1
 1.127200000000000E+10  -7.878560227997067E-2   -1.134139776614225E-1
 1.131190000000000E+10  -8.211363634333932E-2   -1.824338251349952E-1
