#  HZ   S   DB   R     50.00 
! Rohde & Schwarz Vector Network Analyzer 
! Rohde-Schwarz,ZNA67-4Port,1332450064101810,2.73
! Created: UTC 3/3/2026, 2:32:16 PM
! freq[Hz]                db:S11                  ang:S11                 db:S21                  ang:S21                 db:S12                  ang:S12                 db:S22                  ang:S22
 1.000000000000000E8    -3.566897366607912E1    -2.202189280856590E1    -9.244371618285985E-2   -6.165403817380392E-1    3.195469107369047E-3   -5.805679708665996E-1   -3.427782510965807E1    -3.311911944039410E1
 1.399000000000000E8    -4.086236693772025E1    -1.658537754533707E2    -9.247906482960062E-2   -6.109750552855641E-1    1.734383520294693E-2   -6.444278976859700E-1   -3.959277546058869E1     1.662975717534467E2
 1.798000000000000E8    -3.813127501774780E1     1.306286331865611E1    -8.908935819813110E-2   -8.297956896693528E-1    3.967209733293575E-3   -9.316533348495323E-1   -3.523472093250257E1     4.293858069728637
 2.197000000000000E8    -3.738539529599507E1    -8.779014909497864E1    -9.357672219571583E-2   -9.204212398134847E-1    2.376098793776843E-2   -1.036100306163573      -3.724995474111027E1    -1.218564112576939E2
 2.596000000000000E8    -4.174216472983875E1     7.803734992236593E1    -8.089595366308226E-2   -1.211411970049374       1.284000718497482E-2   -1.167679580039170      -3.703520818956145E1     4.842861580956731E1
 2.995000000000000E8    -3.393261022048116E1    -4.608213478076385E1    -8.604978500113361E-2   -1.377760333194677       3.234943240256778E-2   -1.299759299342228      -3.340277721312020E1    -8.198161842881333E1
 3.394000000000000E8    -4.036542713654187E1     1.596967607960532E2    -7.083219674865980E-2   -1.586415032971879       2.093754611470822E-2   -1.453954513796617      -3.858536955340022E1     9.469786353711311E1
 3.793000000000000E8    -3.433031370031607E1    -2.226019609090633E1    -7.820735341081901E-2   -1.739622776410754       3.845250000520054E-2   -1.643198409044040      -3.260323477832013E1    -5.671535565921835E1
 4.192000000000000E8    -3.863398816707509E1    -1.317823306110484E2    -6.593618725154757E-2   -1.870887521522989       3.686808225486623E-2   -1.826494974900967      -4.122126546205467E1    -1.780205155109128E2
 4.591000000000000E8    -4.148403255332262E1     1.370724803332716E1    -7.609498183674718E-2   -2.026009717493193       4.180035846268808E-2   -2.043941024549277      -3.469037384069264E1    -2.646001549316851E1
 4.990000000000000E8    -3.408048207611323E1    -7.088998465266208E1    -6.367213023322095E-2   -2.136369369065807       3.503336626725977E-2   -2.236381168691637      -3.583627523600541E1    -1.167278343880553E2
 5.389000000000000E8    -4.381063326823985E1     1.642499989910280E2    -6.875712337856243E-2   -2.341017475219004       3.860677771676121E-2   -2.432696417428361      -3.658174137143762E1     2.197897805597426E1
 5.788000000000000E8    -3.134988179007058E1    -3.693160422258362E1    -6.243561847607076E-2   -2.489427408752888       3.023267688671347E-2   -2.472429424050257      -3.126999295365722E1    -8.678194264162104E1
 6.187000000000000E8    -3.585538269355508E1    -1.588653390711099E2    -6.284538659097330E-2   -2.744383893402388       4.124157592556131E-2   -2.678635348244597      -3.769268399039512E1     7.709495197192599E1
 6.586000000000000E8    -3.222437847928374E1    -1.128617654723446E1    -6.491479696923577E-2   -2.857446951424718       3.377136341880996E-2   -2.765851852550300      -3.019470588677219E1    -6.800770055272150E1
 6.985000000000000E8    -3.378077314244189E1    -1.241637986403178E2    -6.357516581844726E-2   -3.100339526502125       4.497585131417182E-2   -3.024541681722950      -4.012092238888123E1     1.446259985907892E2
 7.384000000000000E8    -3.975462893664258E1     1.073449350210632E1    -6.897030296575329E-2   -3.222842313591851       3.706102417679361E-2   -3.168408654999571      -3.139767531128665E1    -4.104151041912439E1
 7.783000000000000E8    -3.212342394102831E1    -7.906371550140565E1    -7.034175737149492E-2   -3.387554542899117       4.242573286648470E-2   -3.401742911697639      -3.511574320229974E1    -1.446128959400475E2
 8.182000000000000E8    -4.334087472544340E1    -1.674360664838460E2    -7.554063272528827E-2   -3.569641894155467       2.162867471680592E-2   -3.631063660375534      -3.380143750367090E1    -5.174847098292894
 8.581000000000000E8    -3.076478643331482E1    -4.236646838157675E1    -6.959514971683919E-2   -3.813256081808858       1.902149892644126E-2   -3.788871173669254      -2.989228121494666E1    -1.111033406065550E2
 8.980000000000000E8    -3.378570673093505E1    -1.424611869927392E2    -7.205726439845023E-2   -4.030463176464483       1.515988050469237E-2   -3.928132171497306      -3.525976680108738E1     3.426495543908575E1
 9.379000000000000E8    -3.137711809121219E1    -2.062102055360362E1    -6.282375190545338E-2   -4.236290598821011       6.085065833231408E-3   -4.107317444380286      -2.862675832729904E1    -9.127785476695567E1
 9.778000000000000E8    -3.237100474324446E1    -1.153359311442089E2    -7.184368418192419E-2   -4.506909403003023       1.690469201055709E-2   -4.255758462184431      -4.126648021573630E1     9.268220323017989E1
 1.017700000000000E9    -3.778141173947835E1    -1.206596365001053E1    -6.165077555237968E-2   -4.743318455664896       1.395566830712297E-2   -4.442849809058614      -2.891408812906543E1    -6.975098790445567E1
 1.057600000000000E9    -3.269156621136341E1    -8.477816230613438E1    -7.581969228609833E-2   -5.035151187446043       1.462977368077403E-2   -4.626405926733432      -3.616957825816881E1    -1.569583279075413E2
 1.097500000000000E9    -3.785443756090614E1    -1.088355089672209E2    -7.724810896607594E-2   -5.260063485115521       2.019383960890077E-2   -4.906612482763079      -2.947411737359894E1    -3.663505129977706E1
 1.137400000000000E9    -3.298956959454451E1    -4.483508538039458E1    -8.283708911154161E-2   -5.543385624092853       1.604091870972593E-2   -5.137791952495631      -3.120529128538099E1    -1.380858606303269E2
 1.177300000000000E9    -3.185105964159085E1    -1.110186393796461E2    -8.864322091356859E-2   -5.788652329340683       1.112950678706053E-2   -5.380653777942311      -3.102254660371270E1    -1.957722532171411E1
 1.217200000000000E9    -3.643218369652838E1    -2.827195521403175E1    -8.524549572327103E-2   -6.041847736093450       1.686088434996654E-2   -5.608288688939597      -2.968288344446223E1    -1.204923634709700E2
 1.257100000000000E9    -2.976885609081169E1    -8.599155056841593E1    -8.203144724590558E-2   -6.281495484701384       1.692204164717396E-2   -5.799744209526469      -3.486825567470471E1    -2.827474573686317E1
 1.297000000000000E9    -4.492986137039169E1    -8.127724416197960E1    -7.901930147543061E-2   -6.626897367059347       3.468610666596520E-2   -5.969654681014243      -3.157899531855561E1    -8.720191731970067E1
 1.336900000000000E9    -3.051953562297425E1    -5.522323792638034E1    -8.047624573828883E-2   -6.704098799806310       4.257431037008806E-2   -6.243372581502680      -3.694801397165252E1    -9.986581411639303E1
 1.376800000000000E9    -3.190091865370003E1    -1.354665238929850E2    -7.079868096754580E-2   -6.810567508315840       6.085479644656278E-2   -6.482716334532041      -3.213931104026533E1    -4.971552923399380E1
 1.416700000000000E9    -3.073721103968400E1    -2.854806540873586E1    -7.149192258138025E-2   -7.012704539013187       5.541353817265691E-2   -6.799386729601049      -3.068908889704199E1    -1.235919322892889E2
 1.456600000000000E9    -2.776653156096454E1    -1.167228194734217E2    -7.326838190459796E-2   -7.173615401422710       6.182235395635462E-2   -7.020783536140900      -3.209006291596082E1    -2.976803127744616E1
 1.496500000000000E9    -3.355159113165838E1    -4.780410514573146      -7.012440984757182E-2   -7.424950395444387       6.162926861907032E-2   -7.324603739291642      -2.868660018728885E1    -1.155229281185817E2
 1.536400000000000E9    -2.700921897654777E1    -9.907630250168427E1    -7.371568268988182E-2   -7.602155071302034       6.372839268221105E-2   -7.530397931793841      -3.489033452615134E1    -3.620042982989898E1
 1.576300000000000E9    -4.165256467681860E1    -8.086745213916868E1    -6.863455171933790E-2   -7.853350958341217       5.797539026876870E-2   -7.709331196127589      -2.979296386816003E1    -9.292646635132115E1
 1.616200000000000E9    -2.753202435303944E1    -6.113027390549934E1    -6.922747342356551E-2   -8.126164285588663       6.116797626113179E-2   -7.920728964676904      -3.576733484593633E1    -1.063846823853094E2
 1.656100000000000E9    -3.259292892822064E1    -1.396755834986249E2    -7.104401303283268E-2   -8.375900626074868       7.300295854887906E-2   -8.177989638562568      -3.088799380933845E1    -6.019422777229016E1
 1.696000000000000E9    -2.960494812517301E1    -3.922472229150494E1    -7.905738129953989E-2   -8.558767561783187       5.989439070356131E-2   -8.423937902868724      -2.818434766967155E1    -1.221976161558300E2
 1.735900000000000E9    -2.684567127389619E1    -1.235325053292307E2    -7.840390168759585E-2   -8.743462451185396       6.188170517751330E-2   -8.605205088521128      -3.005113226725352E1    -2.435416744026935E1
 1.775800000000000E9    -2.997817305469188E1    -2.159409350529603E1    -6.823420396953191E-2   -8.989016785454240       6.491988780997657E-2   -8.881614159185419      -2.564222006826183E1    -1.200808341986476E2
 1.815700000000000E9    -2.747972749625664E1    -1.174018276108417E2    -7.432388197308028E-2   -9.161184710936501       7.242837772821173E-2   -9.035418419806158      -3.260328336058302E1    -4.103522834869868
 1.855600000000000E9    -3.272998682372406E1    -6.563082585341326E1    -8.914256142232942E-2   -9.358677558579435       6.290290092108747E-2   -9.265615985086621      -2.514996562134636E1    -1.092284111746471E2
 1.895500000000000E9    -2.984574862416923E1    -9.323440994423078E1    -8.959055407019381E-2   -9.566612776749681       4.929047713406586E-2   -9.297371681405982      -4.238687494623156E1    -7.488821535965008E1
 1.935400000000000E9    -2.776755415225199E1    -8.422641418104416E1    -8.731807008141840E-2   -9.703014468018536       6.128140981171963E-2   -9.438367328743395      -2.543370029207809E1    -7.889505150810704E1
 1.975300000000000E9    -3.817740016702292E1    -3.415009587016296E1    -8.240867790117944E-2   -9.910822261714900       4.868850818317151E-2   -9.564930267500403      -3.295981514288847E1    -1.471205556488926E2
 2.015200000000000E9    -2.582182092103526E1    -9.638586993440450E1    -9.945422131060511E-2   -1.000208717980078E1     5.322694052401388E-2   -9.661517694938576      -2.601629103827297E1    -5.247224484523163E1
 2.055100000000000E9    -4.239302600389291E1    -6.065094936888067E1    -8.909324954357588E-2   -1.010001439301173E1     5.523192764635819E-2   -9.787169981144007      -2.729943590577891E1    -1.458802694317385E2
 2.095000000000000E9    -2.611055077290495E1    -8.240258660106720E1    -1.006202811720830E-1   -1.007697307009414E1     5.325837790775712E-2   -9.786055306920430      -2.716807185368640E1    -4.624284290070149E1
 2.134900000000000E9    -3.421802533933075E1    -1.121137784182975E2    -9.559477092938001E-2   -1.016543255331008E1     7.269590589604613E-2   -9.821338297061894      -2.627769818971895E1    -1.175366622141724E2
 2.174800000000000E9    -3.123658860574487E1    -8.302883406976720E1    -1.179106762212224E-1   -1.024338699080450E1     7.084834773676112E-2   -9.910266549156661      -3.272062521415982E1    -4.568518703949188E1
 2.214700000000000E9    -2.510973524209435E1    -1.008521802084970E2    -1.203140037332991E-1   -9.940849099954896       9.568373557850421E-2   -9.695759742546104      -2.650489105961206E1    -8.596105263630407E1
 2.254600000000000E9    -4.000869425560052E1    -8.561642855725673E1    -1.117198169711660E-1   -1.003669207524350E1     9.783577079158069E-2   -9.992753027979774      -3.326160131904369E1    -1.563801169143018E2
 2.294500000000000E9    -2.387747291592376E1    -9.111410530314670E1    -1.305823951101679E-1   -9.941216012089495       7.044669104461382E-2   -9.852237194031806      -2.475057387075555E1    -7.822759453436494E1
 2.334400000000000E9    -3.810127113656117E1    -1.763699767954314E2    -1.014981515583414E-1   -1.005440933394875E1     9.606255390636102E-2   -9.945014886637329      -2.976917724373663E1    -1.551619847305458E2
 2.374300000000000E9    -2.410484603136791E1    -8.548725224223821E1    -1.454946836403089E-1   -9.993250610491328       5.545556814308245E-2   -9.807839420651193      -2.555442224163396E1    -7.384082213609764E1
 2.414200000000000E9    -3.162762461772876E1    -1.339685633864313E2    -1.004438997401447E-1   -1.003725381366188E1     1.014978785748896E-1   -9.733333727535246      -2.940126002224528E1    -1.262697086220844E2
 2.454100000000000E9    -2.837891009227351E1    -7.456311295586593E1    -1.292988173638882E-1   -9.750998640200264       7.696379071219459E-2   -9.567077885458604      -3.005334118567641E1    -9.085083696975151E1
 2.494000000000000E9    -2.570056669647723E1    -1.158847448353008E2    -9.351728940688428E-2   -9.628163241363973       1.165354140945300E-1   -9.353164357931083      -2.554845535015819E1    -9.593555393249315E1
 2.533900000000000E9    -3.432471958777078E1    -8.082719807706135E1    -1.291232955347150E-1   -9.612638425234039       1.051400970030831E-1   -9.286242895482783      -3.378140945936994E1    -1.386705716567267E2
 2.573800000000000E9    -2.301336821091976E1    -9.504807195598517E1    -1.354094065625261E-1   -9.257244060675113       9.417435323306178E-2   -9.188544745877518      -2.347937101806672E1    -8.352395789121883E1
 2.613700000000000E9    -4.064132970506091E1    -1.393800092923515E2    -1.104976346785635E-1   -9.400978779036402       1.066740973733104E-1   -9.291171345873600      -3.135744949303128E1    -1.500487527214155E2
 2.653600000000000E9    -2.370473018806646E1    -8.704086511488414E1    -1.467691399955348E-1   -9.236598766158833       7.101051940776598E-2   -9.237734899556733      -2.424400522996802E1    -7.556185471779962E1
 2.693500000000000E9    -3.054555770514341E1    -1.277980602253624E2    -8.970817923067682E-2   -9.310166806331297       8.566271658189686E-2   -9.223354255455876      -2.838848131745180E1    -1.279934937999281E2
 2.733400000000000E9    -2.680581555702422E1    -7.920029376593065E1    -1.207709895378933E-1   -9.271631085922774       6.131488073626624E-2   -9.097424801134634      -2.814191264779395E1    -7.358673770373406E1
 2.773300000000000E9    -2.574014785388998E1    -1.060943895393099E2    -1.019130817699787E-1   -9.074278937722873       9.720348038373688E-2   -8.912921297666324      -2.427037867017833E1    -1.077200803808375E2
 2.813200000000000E9    -3.399350555210921E1    -9.917823397349429E1    -1.169719279205043E-1   -9.164048755194766       7.757313060530133E-2   -9.062055521317268      -3.509731291297455E1    -7.907177704076507E1
 2.853100000000000E9    -2.287243782162299E1    -9.256810935738173E1    -1.334700479463712E-1   -9.096924355963221       6.874593412780783E-2   -8.833683998701062      -2.251546688628153E1    -9.333351073397615E1
 2.893000000000000E9    -3.299000218876392E1    -1.321771223602788E2    -1.317061990974495E-1   -9.183252180656035       7.802875025235759E-2   -9.088238590257461      -3.694915876421889E1    -1.378905465467202E2
 2.932900000000000E9    -2.342564780826999E1    -8.222403507612930E1    -1.672252035162260E-1   -9.188022224786966       2.810521443047450E-2   -9.029844745126736      -2.259826745106141E1    -8.507971530265019E1
 2.972800000000000E9    -2.847116112952870E1    -1.223517176338268E2    -1.145656341521335E-1   -9.295361961844835       8.109654052045305E-2   -9.211022403674729      -2.953821440596224E1    -1.336656552946172E2
 3.012700000000000E9    -2.680811554118679E1    -8.391449132057187E1    -1.422041644382751E-1   -9.449289090019384       5.517204048964968E-2   -9.308539918348941      -2.484888488274697E1    -7.370382276962208E1
 3.052600000000000E9    -2.436735663276401E1    -9.965923591098885E1    -1.006369602598254E-1   -9.355297410937217       8.052133634871708E-2   -9.211921253254838      -2.475038507484810E1    -1.186107184776727E2
 3.092500000000000E9    -3.163074700578518E1    -1.136246254373045E2    -1.174732343716442E-1   -9.661788307006969       7.373525904953369E-2   -9.441698528925848      -2.991671333571013E1    -5.987288536087132E1
 3.132400000000000E9    -2.264898033691365E1    -8.453745513853835E1    -1.327974856437537E-1   -9.543247952619920       6.081924100401989E-2   -9.269250455448946      -2.202088760235948E1    -1.083515879154392E2
 3.172300000000000E9    -2.904836500338366E1    -1.423190059609998E2    -1.210876108253008E-1   -9.759914526710729       7.597866311310959E-2   -9.488573926964694      -3.701913714893910E1    -6.976691946419302E1
 3.212200000000000E9    -2.337720099027313E1    -7.642076800264267E1    -1.715879366033883E-1   -9.871853896062767       2.352479999043847E-2   -9.453126754474821      -2.148493601097321E1    -9.817189849047374E1
 3.252100000000000E9    -2.586189034487335E1    -1.263826824642826E2    -1.260778981297093E-1   -1.004918472667425E1     7.870200818467785E-2   -9.743360651586048      -3.324919881280797E1    -1.199141469242749E2
 3.292000000000000E9    -2.684625449850301E1    -8.050934909920689E1    -1.547627864947923E-1   -1.013455918603151E1     4.388899200106997E-2   -9.850660506410112      -2.297310705023186E1    -8.573434865891386E1
 3.331900000000000E9    -2.337454540114289E1    -1.004436030984548E2    -1.156324888833963E-1   -1.010470883982741E1     7.807019907300330E-2   -9.848861022214022      -2.598151649732710E1    -1.237644595954706E2
 3.371800000000000E9    -3.043485607403475E1    -1.183173262982065E2    -1.302208354915228E-1   -1.027276509299793E1     8.326158656103044E-2   -1.003004585845413E1    -2.620249571195001E1    -6.592305929221135E1
 3.411700000000000E9    -2.209418918227401E1    -8.141643047429910E1    -1.219155641125944E-1   -1.012951510672626E1     8.291204535609970E-2   -9.918991293571960      -2.222690362757507E1    -1.192476494986160E2
 3.451600000000000E9    -2.732890935253700E1    -1.426639962075634E2    -1.180686069668413E-1   -1.037517679387057E1     8.712381608946253E-2   -1.018963741012995E1    -2.996509525458305E1    -5.203248243253128E1
 3.491500000000000E9    -2.305290659368631E1    -7.195142580671310E1    -1.384103619874715E-1   -1.042326983530381E1     5.249526083790426E-2   -1.017699778687380E1    -2.100325056640983E1    -1.113359887111109E2
 3.531400000000000E9    -2.449093376469720E1    -1.291767625730783E2    -1.125208567614705E-1   -1.062658465673997E1     6.113795426864527E-2   -1.026286312508508E1    -3.249899079104419E1    -8.016809792283458E1
 3.571300000000000E9    -2.612920576642057E1    -7.851365548738451E1    -1.521954727787245E-1   -1.094618144288346E1     3.727641283083730E-2   -1.034243031239467E1    -2.193829301580676E1    -9.673313954019346E1
 3.611200000000000E9    -2.286885863996342E1    -1.036124961054017E2    -1.022198167917168E-1   -1.085231506288521E1     7.282082605339983E-2   -1.016723295123191E1    -2.749522185121236E1    -1.187585260791895E2
 3.651100000000000E9    -2.844848458539744E1    -1.142489089047245E2    -1.300577411563583E-1   -1.101032359111484E1     7.763559595153328E-2   -1.024668678376351E1    -2.372887223241404E1    -7.433156672719063E1
 3.691000000000000E9    -2.207771238377627E1    -8.200214158284383E1    -1.117451623364633E-1   -1.089840864947647E1     8.629980985065358E-2   -1.015584139762172E1    -2.316148556503682E1    -1.253826545228616E2
 3.730900000000000E9    -2.578544151484695E1    -1.351304517209552E2    -1.160510366926701E-1   -1.102723711152475E1     9.050929945441652E-2   -1.043085959951864E1    -2.576480575011992E1    -5.816907172312060E1
