#  HZ   S   RI   R     50.00 
! Rohde & Schwarz Vector Network Analyzer 
! Rohde-Schwarz,ZNA67-4Port,1332450064101810,2.73
! Created: UTC 3/5/2026, 3:40:58 PM
! freq[Hz]                re:S11                  im:S11                  re:S21                  im:S21                  re:S12                  im:S12                  re:S22                  im:S22
 1.000000000000000E8     1.653254756766584E-2   -6.757603972824877E-3    9.866223940214334E-1   -1.117407005349974E-2    1.002803582001226      -1.065659548785386E-2    1.812994193958839E-2   -1.201635316194749E-2
 1.399000000000000E8    -1.012178263236758E-2   -2.212368080959252E-3    9.865287742269849E-1   -1.097337616060815E-2    1.004638908770472      -1.180005248132099E-2   -1.239286106926441E-2    3.160002747940968E-3
 1.798000000000000E8     1.304698681823198E-2    3.303865072687786E-3    9.867274814799352E-1   -1.477649911681355E-2    1.002704292455615      -1.703678023138775E-2    1.943655305845945E-2    1.900882524662473E-3
 2.197000000000000E8     3.120658499166928E-4   -1.459751439254126E-2    9.862590752584905E-1   -1.633188681088021E-2    1.005493023868057      -1.893136370028564E-2   -9.047657445413734E-3   -1.298488977500313E-2
 2.596000000000000E8     1.332062740772147E-3    9.398901930495043E-3    9.877777760085921E-1   -2.172109611238182E-2    1.003941869875844      -2.133195954040955E-2    1.029587740333876E-2    1.291626258078611E-2
 2.995000000000000E8     1.534238385830352E-2   -1.550080290970061E-2    9.870915858811593E-1   -2.457259988561001E-2    1.006631209496256      -2.371171843072319E-2    2.799877621507102E-3   -2.366964369978837E-2
 3.394000000000000E8    -1.050781147553881E-2    4.375183908229739E-3    9.888930961868163E-1   -2.830161765845160E-2    1.004998070783169      -2.648699245592542E-2   -1.734666302607706E-3    1.433352928879901E-2
 3.793000000000000E8     1.942253011531062E-2   -7.528102247329069E-3    9.879930430464878E-1   -3.107817244788044E-2    1.007225983530915      -3.021090643493517E-2    1.430896473325662E-2   -2.165092522751768E-2
 4.192000000000000E8    -9.234691242916843E-3   -8.694617173404140E-3    9.895143159517570E-1   -3.335248604668953E-2    1.006839909692454      -3.347767887493069E-2   -1.091869607731479E-2    1.317721002647277E-3
 4.591000000000000E8     8.605163567393423E-3    2.687203739201616E-3    9.882434749572182E-1   -3.613484674850995E-2    1.007534762992796      -3.769850104189598E-2    1.875324967579760E-2   -8.231876985682163E-3
 4.990000000000000E8     6.865059054734182E-3   -1.979142325695561E-2    9.896723325933764E-1   -3.807818998491484E-2    1.006408486984562      -4.106822400294398E-2   -9.244769617222917E-3   -1.553753652804503E-2
 5.389000000000000E8    -7.496756497341897E-3    2.942502267910999E-3    9.888952376216595E-1   -4.179284562802928E-2    1.006750392248226      -4.468587691388179E-2    1.522452448369203E-2    7.567944029828978E-3
 5.788000000000000E8     2.397246071405730E-2   -1.690614860258298E-2    9.896686404227688E-1   -4.429875612490899E-2    1.005712520773655      -4.520108573271939E-2    9.518668411043034E-4   -3.025182922300168E-2
 6.187000000000000E8    -1.776925408271798E-2   -5.151123915867754E-3    9.894541574978871E-1   -4.909712460653701E-2    1.006981962335592      -4.922525446871891E-2    3.062062941237391E-3    1.601695948345636E-2
 6.586000000000000E8     2.676513955461557E-2   -4.525962265276892E-3    9.892336484441583E-1   -5.108837129515095E-2    1.006174578555419      -5.074028067591804E-2    1.307301507513926E-2   -3.132694224048166E-2
 6.985000000000000E8    -1.342047798282797E-2   -1.702327498109123E-2    9.890760536896785E-1   -5.559672946028060E-2    1.007220338320427      -5.588879882497948E-2   -1.016511373203192E-2    8.422929268312975E-3
 7.384000000000000E8     1.084784597965137E-2    3.286424483973528E-3    9.882068748173652E-1   -5.759952883586709E-2    1.005947367329909      -5.820441643834757E-2    2.314749272744884E-2   -1.868809121459111E-2
 7.783000000000000E8     4.685120871301608E-3   -2.536799150407712E-2    9.878538913003907E-1   -6.054335118788977E-2    1.006422785617761      -6.272843238759636E-2   -1.737450253686415E-2   -9.723831654149570E-3
 8.182000000000000E8    -7.916177016953671E-3   -2.891586359377168E-4    9.869535954644728E-1   -6.362237589201436E-2    1.003325775896798      -6.682647982272467E-2    2.316708204148874E-2   -1.289252555654735E-4
 8.581000000000000E8     2.350525293891343E-2   -2.003851361456006E-2    9.875714039505380E-1   -6.822392213262220E-2    1.003016085924572      -6.962926282169765E-2   -1.418902610037846E-2   -3.242553144874698E-2
 8.980000000000000E8    -1.865900034510867E-2   -1.230135644030318E-2    9.868942786943801E-1   -7.228111922154734E-2    1.002241796501680      -7.196797861232632E-2    1.612780107574840E-2    1.346457205315334E-2
 9.379000000000000E8     2.794187064194049E-2   -8.869048732036394E-3    9.879893159391632E-1   -7.597083306569906E-2    1.001042660336524      -7.533246776676936E-2   -1.724363863085970E-3   -4.054745974206236E-2
 9.778000000000000E8    -1.197869896321709E-2   -2.222721273823368E-2    9.862701883732228E-1   -8.111890371138852E-2    1.002260871934624      -7.831813087295150E-2   -9.374993907662506E-4    1.256040890020411E-2
 1.017700000000000E9     1.398404483644797E-2   -1.003877204331982E-3    9.871460558367825E-1   -8.549757552352474E-2    1.001459812710651      -8.157269586385590E-2    1.378870507202549E-2   -3.635957026614507E-2
 1.057600000000000E9     1.498110629183060E-3   -2.332255867624276E-2    9.848552589644587E-1   -9.056532225455963E-2    1.001214657950221      -8.501508687592926E-2   -1.722041845935598E-2   -4.007009544697071E-3
 1.097500000000000E9    -4.937578069057967E-3   -1.168789328557426E-2    9.842126031942904E-1   -9.460460993034854E-2    1.001605562616016      -9.038136309738745E-2    3.055862451186696E-2   -2.075381151813166E-2
 1.137400000000000E9     1.730718291339732E-2   -1.510938687537505E-2    9.830428698272830E-1   -9.983371600081103E-2    1.000598694283251      -9.461275521095232E-2   -2.420617511666633E-2   -1.822008806610191E-2
 1.177300000000000E9    -1.076679745588654E-2   -2.455425902025991E-2    9.817761549705425E-1   -1.044271029034125E-1    9.995705730081392E-1   -9.924628354692498E-2    3.016439299705936E-2   -8.049957922794455E-3
 1.217200000000000E9     1.465531094062103E-2   -5.520809885475417E-3    9.815475685654631E-1   -1.090895695967012E-1    9.997324896344129E-1   -1.035537817049990E-1   -1.982901176256620E-2   -2.950021151748469E-2
 1.257100000000000E9     2.068890307410698E-3   -3.377467292210089E-2    9.814543325383992E-1   -1.135896943363442E-1    9.995284269989628E-1   -1.070745340686860E-1    1.783926107978923E-2   -6.651050274710829E-3
 1.297000000000000E9     1.043116313409628E-3   -3.692688330419032E-3    9.810548713917329E-1   -1.201642843406050E-1    1.001488227689649      -1.103636007135793E-1    9.568054061207254E-4   -2.737668390615718E-2
 1.336900000000000E9     1.852898561494942E-2   -2.449399569168429E-2    9.806772168425668E-1   -1.212430932636224E-1    1.001997072430351      -1.157074518909812E-1   -3.293670921881500E-3   -1.239749202934039E-2
 1.376800000000000E9    -2.057136913093716E-2   -1.700748095465478E-2    9.817213931128335E-1   -1.231296325306109E-1    1.003930683006142      -1.205343061472744E-1    1.782999137098629E-2   -1.879118278194664E-2
 1.416700000000000E9     2.817437563699145E-2   -1.274033273205560E-2    9.810624615315418E-1   -1.268035162268677E-1    1.002465105626499      -1.263335923247819E-1   -1.901405119768934E-2   -2.403183128223173E-2
 1.456600000000000E9    -2.093871856786889E-2   -3.774084765948117E-2    9.804341208876046E-1   -1.296868187887517E-1    1.002867570071538      -1.306724087330922E-1    2.427906067118241E-2   -1.092491309748737E-2
 1.496500000000000E9     2.331446972754045E-2    8.268578698403146E-4    9.802101234402228E-1   -1.342974153794498E-1    1.001995029382404      -1.363391045509608E-1   -1.851914086421843E-2   -3.418772925775795E-2
 1.536400000000000E9    -8.443537696193276E-3   -4.584883859739414E-2    9.792282555940565E-1   -1.374710245910146E-1    1.001856997054889      -1.402637602592821E-1    1.609872167927318E-2   -8.485846926443691E-3
 1.576300000000000E9     1.381047928413009E-3   -6.551945983432009E-3    9.791437205995491E-1   -1.422309032217270E-1    1.000673920130498      -1.434005553380804E-1   -2.172392653646202E-3   -3.338693552978408E-2
 1.616200000000000E9     2.258339393830078E-2   -3.752502590154724E-2    9.782407367659639E-1   -1.472617510857883E-1    1.000567945174547      -1.473299130913373E-1   -5.759921224592771E-3   -1.382805158834416E-2
 1.656100000000000E9    -2.010352923655045E-2   -1.374253961532160E-2    9.772910094934566E-1   -1.516545851643357E-1    1.001394589195470      -1.524818559321481E-1    1.625711041723901E-2   -2.456299361896423E-2
 1.696000000000000E9     2.850825769017662E-2   -1.969523607145720E-2    9.758195794395959E-1   -1.547550137352066E-1    9.990111826918379E-1   -1.568358627060513E-1   -2.444848960067295E-2   -3.334316795437975E-2
 1.735900000000000E9    -2.868087985502705E-2   -3.895520473385777E-2    9.753590289774706E-1   -1.580877490368671E-1    9.989856679578554E-1   -1.602530405874230E-1    3.266949692521695E-2   -1.078270385635031E-2
 1.775800000000000E9     3.346811740770831E-2   -9.488093401245040E-3    9.758168755057892E-1   -1.628517544820751E-1    9.986492448906827E-1   -1.656426574544160E-1   -3.047130947181306E-2   -4.747928238937639E-2
 1.815700000000000E9    -2.273883753319263E-2   -3.766852500081395E-2    9.745037229301301E-1   -1.656097178854367E-1    9.993056168922461E-1   -1.685134656367369E-1    2.677038556044248E-2    2.634184076491082E-3
 1.855600000000000E9     1.081010111014934E-2   -2.030315243898120E-2    9.719313169473797E-1   -1.689044665345893E-1    9.974643469588336E-1   -1.726960212094428E-1   -2.107318818198841E-2   -5.549813955985543E-2
 1.895500000000000E9    -2.898048949093188E-3   -3.167715198781100E-2    9.710859874221688E-1   -1.725598267777151E-1    9.959180087097913E-1   -1.727306763212449E-1    1.933297782899968E-3   -3.183067576059399E-3
 1.935400000000000E9     5.039547690949137E-3   -4.243614148416590E-2    9.709613902700103E-1   -1.750649402125685E-1    9.970474071751676E-1   -1.756367313836809E-1    1.176120029560065E-2   -5.594871714668077E-2
 1.975300000000000E9     1.155659288401430E-2   -2.893901842453674E-3    9.707604369510673E-1   -1.788714888253627E-1    9.952751554073941E-1   -1.775583814084737E-1   -2.220141934530619E-2   -8.710451991897211E-3
 2.015200000000000E9    -6.816456204482291E-3   -5.325611939506107E-2    9.682381229133111E-1   -1.799145479094097E-1    9.957395275154507E-1   -1.793919933740581E-1    3.518988728562208E-2   -4.107581362053458E-2
 2.055100000000000E9     4.677029361362994E-3   -2.834540603281754E-3    9.691865704412990E-1   -1.817754329558161E-1    9.956701321915330E-1   -1.817939089256086E-1   -4.157564885957069E-2   -2.261150944866130E-2
 2.095000000000000E9     6.603091712625388E-3   -5.090603463993911E-2    9.676012337435834E-1   -1.806061215975399E-1    9.954970508662621E-1   -1.813082757984929E-1    3.500147768108119E-2   -3.101345934281569E-2
 2.134900000000000E9    -7.426255138482635E-3   -1.538235046321203E-2    9.680341628935729E-1   -1.821578417772849E-1    9.981432899068655E-1   -1.822408713731388E-1   -2.643984901504798E-2   -4.470848970153081E-2
 2.174800000000000E9     2.320765689424444E-3   -2.582782885641480E-2    9.648760698263721E-1   -1.827562536395317E-1    9.977845080622298E-1   -1.835869457409069E-1    1.893066763846461E-2   -1.304783352297752E-2
 2.214700000000000E9    -1.102127181302776E-2   -5.747229288265611E-2    9.657030792601706E-1   -1.769430472972132E-1    1.002213183469815      -1.797169696878121E-1    3.455465199064880E-3   -5.024950125477681E-2
 2.254600000000000E9     1.190970650501250E-3   -5.905170833880969E-3    9.666039717007283E-1   -1.780837038727296E-1    1.001680669942441      -1.849830596203788E-1   -2.178725794650913E-2   -3.133723329706628E-3
 2.294500000000000E9    -4.988693923895539E-4   -6.796096584666518E-2    9.645484107162522E-1   -1.761020750493970E-1    9.988392164117936E-1   -1.816663141569371E-1    1.413183722952268E-2   -6.067418118313564E-2
 2.334400000000000E9    -1.363574662901715E-2    5.085514726220167E-3    9.675178064323309E-1   -1.780183563805693E-1    1.001646153233859      -1.832040036022014E-1   -3.364059641456303E-2   -9.049981656688712E-3
 2.374300000000000E9     5.996646133708428E-3   -6.583053149811761E-2    9.624788932948999E-1   -1.759058116199243E-1    9.973561603310084E-1   -1.797132427509707E-1    1.821082008483010E-2   -5.275833568299730E-2
 2.414200000000000E9    -1.985925722280850E-2   -1.543669858726366E-2    9.674908125508614E-1   -1.771659864913742E-1    1.003245362510078      -1.787441113565699E-1   -2.351432142093041E-2   -2.566105298551903E-2
 2.454100000000000E9     1.202303771505537E-2   -3.624637485131520E-2    9.653943937368352E-1   -1.705417791346899E-1    1.001578214094531      -1.747693815001506E-1    1.416888198352007E-3   -2.954210124608564E-2
 2.494000000000000E9    -2.534981732641231E-2   -4.717780524684717E-2    9.699899600992239E-1   -1.688571209289479E-1    1.006983340760805      -1.711375669799558E-1   -6.791977189565285E-3   -5.524143037461322E-2
 2.533900000000000E9     3.853730590562682E-3   -1.605487024237537E-2    9.660096615005270E-1   -1.671781112823200E-1    1.006055783355175      -1.687848775340552E-1   -1.608994252383063E-2   -8.350981614480002E-3
 2.573800000000000E9    -6.170834232840216E-3   -7.463292088425554E-2    9.661937427584917E-1   -1.602510189116851E-1    1.004892879170537      -1.667263751813094E-1    9.149210085518354E-3   -7.121349249989178E-2
 2.613700000000000E9    -7.367106062971425E-3   -3.702949775488615E-4    9.688194988268087E-1   -1.625479586958474E-1    1.006370342120790      -1.680708361939845E-1   -2.654462456042176E-2   -8.318665649555509E-3
 2.653600000000000E9     4.633913810556486E-3   -6.836326688505634E-2    9.650324826915718E-1   -1.589418714882516E-1    1.002270436944975      -1.663920358972222E-1    1.912022521201848E-2   -6.247792564138498E-2
 2.693500000000000E9    -2.026332732193023E-2   -2.023087989241161E-2    9.715558487129834E-1   -1.609891317472161E-1    1.003696195937575      -1.658243882522784E-1   -2.750513985565193E-2   -2.772602232383798E-2
 2.733400000000000E9     1.062096414396461E-2   -4.492185636402080E-2    9.684471108470716E-1   -1.592853417770224E-1    1.001632012283553      -1.626907262240844E-1    1.488774676639414E-2   -3.638057234072348E-2
 2.773300000000000E9    -1.568529758959820E-2   -5.012631194110475E-2    9.709817130104906E-1   -1.555594733041454E-1    1.006397721684491      -1.594652037475110E-1   -2.201144492589592E-2   -6.078929514398555E-2
 2.813200000000000E9    -2.801939293115315E-3   -1.566095440617885E-2    9.693631618970786E-1   -1.562240787910718E-1    1.003868538440934      -1.612582335776701E-1    5.613319119981156E-3   -1.196400980873617E-2
 2.853100000000000E9    -3.082293180187767E-3   -7.566008416935369E-2    9.672139181904076E-1   -1.547554440152034E-1    1.003150862160436      -1.566938126253698E-1   -4.680752621717882E-3   -7.997440678596812E-2
 2.893000000000000E9    -1.618361897049322E-2   -1.172566249380134E-2    9.673902191725676E-1   -1.554903578386260E-1    1.003752253131311      -1.610024669868710E-1   -1.140162757602814E-2   -2.708112631555085E-3
 2.932900000000000E9     1.138369388542375E-2   -6.973659574342927E-2    9.631798072828597E-1   -1.550468765282131E-1    9.977053644264702E-1   -1.588810059707094E-1    9.053607283203119E-3   -7.854223773599261E-2
 2.972800000000000E9    -2.202444706027896E-2   -2.902510916648326E-2    9.692023129571395E-1   -1.576224739974714E-1    1.003717590468764      -1.631226499836189E-1   -2.681235394697030E-2   -1.978233328108689E-2
 3.012700000000000E9     6.565138983918212E-3   -4.493605986330908E-2    9.658809924234941E-1   -1.598771872719544E-1    1.000505602913831      -1.642193124854210E-1    2.116403513524484E-2   -5.585601071892547E-2
 3.052600000000000E9    -1.068102717455053E-2   -6.084814386138657E-2    9.709163668253429E-1   -1.587405444660282E-1    1.003674605268519      -1.626313320601403E-1   -3.244410918813251E-2   -5.105553302801485E-2
 3.092500000000000E9    -1.076086603827599E-2   -1.991120929452186E-2    9.684450321509647E-1   -1.635523973856917E-1    1.002635485170487      -1.664329894224014E-1    2.099128733304314E-2   -2.339686257941157E-2
 3.132400000000000E9     8.970721206155066E-3   -7.665478098681025E-2    9.666104746632084E-1   -1.611145538915404E-1    1.001071304752682      -1.628360181788335E-1   -2.836486298019041E-2   -7.975419088564040E-2
 3.172300000000000E9    -3.059067140992558E-2   -1.663044517388369E-2    9.676669350147593E-1   -1.647129934524875E-1    1.002675654193994      -1.666187211122577E-1    7.087642087347903E-3   -6.073716628694298E-3
 3.212200000000000E9     1.918782564633041E-2   -6.830057589816659E-2    9.610627123690643E-1   -1.661289742857413E-1    9.960402809275271E-1   -1.649536041529427E-1   -1.193719159455106E-2   -8.947371109230248E-2
 3.252100000000000E9    -3.305432580930170E-2   -3.853551424496102E-2    9.661154017043789E-1   -1.698163713271303E-1    1.002197352547397      -1.711975351742919E-1   -1.226847004407956E-2   -1.240179916120815E-2
 3.292000000000000E9     9.681046151712922E-3   -4.388695354943835E-2    9.626550109493882E-1   -1.706878464579621E-1    9.977162214990098E-1   -1.725713124213380E-1    9.153415055918280E-3   -7.441581292349636E-2
 3.331900000000000E9    -1.265849662389465E-2   -6.789963976186154E-2    9.673230122930278E-1   -1.706616904913930E-1    1.001867767084371      -1.730004907051478E-1   -3.249170219937968E-2   -3.922237742733492E-2
 3.371800000000000E9    -1.508869651314278E-2   -2.244109649960842E-2    9.655164289424408E-1   -1.729635619092368E-1    1.002447522003201      -1.762141343533393E-1    2.637055114256111E-2   -4.325721777022483E-2
 3.411700000000000E9     1.474506543741907E-2   -8.074944516543148E-2    9.668204060632677E-1   -1.703555790744877E-1    1.002469128427976      -1.739783700342996E-1   -4.348680036187372E-2   -6.974615033363754E-2
 3.451600000000000E9    -3.780174716075602E-2   -2.137469717521949E-2    9.666909136279657E-1   -1.743085548470859E-1    1.002284907127167      -1.788501554348303E-1    2.512622453216407E-2   -1.924308503793007E-2
 3.491500000000000E9     2.635053232899251E-2   -6.859165205476644E-2    9.641053947751954E-1   -1.748956400128779E-1    9.978410202162845E-1   -1.780430106002076E-1   -3.624589708566039E-2   -8.845729105340336E-2
 3.531400000000000E9    -4.158013951536685E-2   -4.403676475695067E-2    9.665099749981865E-1   -1.786571670250756E-1    9.984716359035347E-1   -1.793819436194954E-1    6.173015716901733E-3   -1.657972555346864E-2
 3.571300000000000E9     1.262100355835813E-2   -4.738815728519051E-2    9.607033940892424E-1   -1.838090365403994E-1    9.953403343314188E-1   -1.804501638043925E-1   -8.496340537198074E-3   -8.444218631774977E-2
 3.611200000000000E9    -1.780597606898124E-2   -7.083038852472007E-2    9.670383235255448E-1   -1.827776249211949E-1    1.000381935119468      -1.773836550456769E-1   -2.277970833636442E-2   -3.231542436484834E-2
 3.651100000000000E9    -1.631653497636095E-2   -3.106924183859719E-2    9.634511485742574E-1   -1.847410264551442E-1    1.001192049826539      -1.787817836157672E-1    2.321539545324411E-2   -6.436600108814047E-2
 3.691000000000000E9     1.436535191164155E-2   -8.034396400441271E-2    9.659010281956937E-1   -1.829495639828092E-1    1.002434367550471      -1.771486002781621E-1   -4.588100571964845E-2   -5.561679569953083E-2
