#  HZ   S   RI   R     50.00 
! Rohde & Schwarz Vector Network Analyzer 
! Rohde-Schwarz,ZNA67-4Port,1332450064101810,2.73
! Created: UTC 5/16/2025, 1:33:36 PM
! freq[Hz]                re:S22                  im:S22
 1.000000000000000E8    -2.038673191621816E-1   -9.311048154790784E-1
 1.399000000000000E8    -4.736801625975120E-1   -8.286088796602291E-1
 1.798000000000000E8    -6.259973339277659E-1   -7.239454208177454E-1
 2.197000000000000E8    -7.215385158456810E-1   -6.322429338326806E-1
 2.596000000000000E8    -7.821933269809535E-1   -5.592833079301285E-1
 2.995000000000000E8    -8.247522200328997E-1   -4.993261572714204E-1
 3.394000000000000E8    -8.536154521169840E-1   -4.523091362833658E-1
 3.793000000000000E8    -8.753662689394782E-1   -4.109762527529668E-1
 4.192000000000000E8    -8.920956145504239E-1   -3.771353896340654E-1
 4.591000000000000E8    -9.044552817738034E-1   -3.480477557635228E-1
 4.990000000000000E8    -9.149163285482487E-1   -3.232857436472495E-1
 5.389000000000000E8    -9.228398705470885E-1   -3.017350561606373E-1
 5.788000000000000E8    -9.298256098612451E-1   -2.834074107264667E-1
 6.187000000000000E8    -9.354732374437109E-1   -2.666752356418305E-1
 6.586000000000000E8    -9.395996374791725E-1   -2.534144384427139E-1
 6.985000000000000E8    -9.437433807656114E-1   -2.399084725532500E-1
 7.384000000000000E8    -9.473721783098824E-1   -2.279275303478740E-1
 7.783000000000000E8    -9.505979658153637E-1   -2.169026815913094E-1
 8.182000000000000E8    -9.530886506685684E-1   -2.071969841891324E-1
 8.581000000000000E8    -9.554439768554540E-1   -1.982495654002900E-1
 8.980000000000000E8    -9.574331059405707E-1   -1.899771356530570E-1
 9.379000000000000E8    -9.590077095166245E-1   -1.822888636040475E-1
 9.778000000000000E8    -9.609931298586813E-1   -1.745905643654443E-1
 1.017700000000000E9    -9.621167750758025E-1   -1.678783008524018E-1
 1.057600000000000E9    -9.636033207078049E-1   -1.619512601711962E-1
 1.097500000000000E9    -9.643049680908043E-1   -1.565437973571421E-1
 1.137400000000000E9    -9.653531275617995E-1   -1.514129904344273E-1
 1.177300000000000E9    -9.664881344126937E-1   -1.465829838348658E-1
 1.217200000000000E9    -9.670823196455555E-1   -1.415185354878504E-1
 1.257100000000000E9    -9.679502881506493E-1   -1.372081804223050E-1
 1.297000000000000E9    -9.688453158323261E-1   -1.324903988180183E-1
 1.336900000000000E9    -9.692089387724383E-1   -1.290135947402516E-1
 1.376800000000000E9    -9.698976740203055E-1   -1.251600000036529E-1
 1.416700000000000E9    -9.704108177577472E-1   -1.215908182687932E-1
 1.456600000000000E9    -9.707569492049165E-1   -1.185052610486895E-1
 1.496500000000000E9    -9.710645587660653E-1   -1.152414492724089E-1
 1.536400000000000E9    -9.715787255690351E-1   -1.118435488243172E-1
 1.576300000000000E9    -9.721580274341013E-1   -1.088104828284783E-1
 1.616200000000000E9    -9.720044786101070E-1   -1.061610632226239E-1
 1.656100000000000E9    -9.725021141099927E-1   -1.038479996751134E-1
 1.696000000000000E9    -9.725568105610423E-1   -1.011918059235151E-1
 1.735900000000000E9    -9.731090617714498E-1   -9.896684348270118E-2
 1.775800000000000E9    -9.729517967455730E-1   -9.653831361128877E-2
 1.815700000000000E9    -9.729513835249236E-1   -9.474639483101335E-2
 1.855600000000000E9    -9.733261509828999E-1   -9.210346215360327E-2
 1.895500000000000E9    -9.736518899657868E-1   -9.040280284025484E-2
 1.935400000000000E9    -9.736090282485707E-1   -8.839571700609963E-2
 1.975300000000000E9    -9.739999762063427E-1   -8.642424249475979E-2
 2.015200000000000E9    -9.739929402215369E-1   -8.475217045775897E-2
 2.055100000000000E9    -9.738896820038514E-1   -8.319910042897688E-2
 2.095000000000000E9    -9.742130605562430E-1   -8.138790470940085E-2
 2.134900000000000E9    -9.743207795469597E-1   -8.046823828241766E-2
 2.174800000000000E9    -9.743584235656296E-1   -7.872823876085105E-2
 2.214700000000000E9    -9.741372715907798E-1   -7.698666586330805E-2
 2.254600000000000E9    -9.745797594882908E-1   -7.544219953546276E-2
 2.294500000000000E9    -9.745331594489657E-1   -7.376786508543583E-2
 2.334400000000000E9    -9.747881218326256E-1   -7.266495676928092E-2
 2.374300000000000E9    -9.746357813577616E-1   -7.160955366886947E-2
 2.414200000000000E9    -9.749130715124453E-1   -7.045202455169591E-2
 2.454100000000000E9    -9.746802436034819E-1   -6.889710264520080E-2
 2.494000000000000E9    -9.750396150563069E-1   -6.794224934119239E-2
 2.533900000000000E9    -9.746773194156666E-1   -6.622683913326245E-2
 2.573800000000000E9    -9.751865936537317E-1   -6.603801647220782E-2
 2.613700000000000E9    -9.746992788519315E-1   -6.498267188603167E-2
 2.653600000000000E9    -9.756171753888402E-1   -6.341469777228731E-2
 2.693500000000000E9    -9.754498897863608E-1   -6.332086669888361E-2
 2.733400000000000E9    -9.751807704008570E-1   -6.148721737268352E-2
 2.773300000000000E9    -9.753287728224539E-1   -6.013882931199827E-2
 2.813200000000000E9    -9.753747163059653E-1   -5.995472818765795E-2
 2.853100000000000E9    -9.751000771517621E-1   -5.879632022704071E-2
 2.893000000000000E9    -9.751074646678369E-1   -5.774797837433483E-2
 2.932900000000000E9    -9.750858894031389E-1   -5.662979724104392E-2
 2.972800000000000E9    -9.752061240104436E-1   -5.627092948754019E-2
 3.012700000000000E9    -9.750932515819813E-1   -5.555413924934519E-2
 3.052600000000000E9    -9.753904757670204E-1   -5.509059753036898E-2
 3.092500000000000E9    -9.752567494895202E-1   -5.397972792137090E-2
 3.132400000000000E9    -9.752726738852441E-1   -5.312668061388023E-2
 3.172300000000000E9    -9.754113664303895E-1   -5.247536952872382E-2
 3.212200000000000E9    -9.749453466069141E-1   -5.152599644356398E-2
 3.252100000000000E9    -9.753023876557190E-1   -5.095921250496230E-2
 3.292000000000000E9    -9.752763547003500E-1   -5.039338606467498E-2
 3.331900000000000E9    -9.753954885446064E-1   -5.023314157494232E-2
 3.371800000000000E9    -9.752334239947668E-1   -4.946610963119794E-2
 3.411700000000000E9    -9.752621406590972E-1   -4.863616853046403E-2
 3.451600000000000E9    -9.755413839390764E-1   -4.841330239225834E-2
 3.491500000000000E9    -9.753333721401884E-1   -4.766684832701094E-2
 3.531400000000000E9    -9.755432401132275E-1   -4.757702308911790E-2
 3.571300000000000E9    -9.750750857952882E-1   -4.669247037145464E-2
 3.611200000000000E9    -9.754117304966275E-1   -4.602441856385996E-2
 3.651100000000000E9    -9.749835010125943E-1   -4.560226758492179E-2
 3.691000000000000E9    -9.752043311734264E-1   -4.491517539728288E-2
 3.730900000000000E9    -9.748576464266042E-1   -4.459415756303729E-2
 3.770800000000000E9    -9.755109063581765E-1   -4.401872525771663E-2
 3.810700000000000E9    -9.750216954824288E-1   -4.343318970719166E-2
 3.850600000000000E9    -9.750162828509061E-1   -4.340292836435182E-2
 3.890500000000000E9    -9.751733377905483E-1   -4.297179504368710E-2
 3.930400000000000E9    -9.749447150243750E-1   -4.303971000808628E-2
 3.970300000000000E9    -9.747101975164124E-1   -4.204009876423463E-2
 4.010200000000000E9    -9.746251248584877E-1   -4.188045106693652E-2
 4.050100000000000E9    -9.747958686400631E-1   -4.100936268506775E-2
 4.090000000000000E9    -9.750189789163416E-1   -4.074619376774671E-2
 4.129900000000000E9    -9.751052903550314E-1   -4.060246357117016E-2
 4.169800000000000E9    -9.751329225589523E-1   -4.028526025860005E-2
 4.209700000000000E9    -9.744900687547214E-1   -3.981526003641783E-2
 4.249600000000000E9    -9.744649943965340E-1   -3.967897713350570E-2
 4.289500000000000E9    -9.745440693906527E-1   -3.917217282073399E-2
 4.329400000000000E9    -9.746141081332741E-1   -3.965753361000492E-2
 4.369300000000000E9    -9.745802854151416E-1   -3.874282585599140E-2
 4.409200000000000E9    -9.747204765724460E-1   -3.848667990885008E-2
 4.449100000000000E9    -9.750008717692047E-1   -3.795499555700735E-2
 4.489000000000000E9    -9.747005458693546E-1   -3.814559099531253E-2
 4.528900000000000E9    -9.746881757877608E-1   -3.764815643874717E-2
 4.568800000000000E9    -9.744045927252990E-1   -3.722757483100405E-2
 4.608700000000000E9    -9.740348459789878E-1   -3.669069941478537E-2
 4.648600000000000E9    -9.744726444598028E-1   -3.687988462320179E-2
 4.688500000000000E9    -9.742859004472300E-1   -3.660684529812598E-2
 4.728400000000000E9    -9.742379673672859E-1   -3.693393289490491E-2
 4.768300000000000E9    -9.739706712646350E-1   -3.651856997506048E-2
 4.808200000000000E9    -9.737335452543739E-1   -3.563628243590471E-2
 4.848100000000000E9    -9.739561051851835E-1   -3.572586979421994E-2
 4.888000000000000E9    -9.741278604860971E-1   -3.539004716795727E-2
 4.927900000000000E9    -9.745061200627928E-1   -3.529493180025632E-2
 4.967800000000000E9    -9.735641160070512E-1   -3.536337456671244E-2
 5.007700000000000E9    -9.739823197081253E-1   -3.592895301449210E-2
 5.047600000000000E9    -9.741107863349516E-1   -3.556196830771270E-2
 5.087500000000000E9    -9.739296968660702E-1   -3.493250484431217E-2
 5.127400000000000E9    -9.740392033316809E-1   -3.457951850388050E-2
 5.167300000000000E9    -9.736034342866792E-1   -3.477165555209945E-2
 5.207200000000000E9    -9.737407108892665E-1   -3.453534752675495E-2
 5.247100000000000E9    -9.737231640292076E-1   -3.478346390650534E-2
 5.287000000000000E9    -9.735749066607294E-1   -3.421068468620555E-2
 5.326900000000000E9    -9.736006842772872E-1   -3.437427916256195E-2
 5.366800000000000E9    -9.736989872526248E-1   -3.404343917239373E-2
 5.406700000000000E9    -9.734636159488239E-1   -3.413524696968773E-2
 5.446600000000000E9    -9.731817788299472E-1   -3.357412479208906E-2
 5.486500000000000E9    -9.733491888446049E-1   -3.344891125712345E-2
 5.526400000000000E9    -9.734447845660913E-1   -3.352485956309004E-2
 5.566300000000000E9    -9.728832987731522E-1   -3.311978580897555E-2
 5.606200000000000E9    -9.734851258071470E-1   -3.316337283164802E-2
 5.646100000000000E9    -9.730354456395908E-1   -3.299646608676272E-2
 5.686000000000000E9    -9.731258424496545E-1   -3.254494904362497E-2
 5.725900000000000E9    -9.732575140462261E-1   -3.239910341014141E-2
 5.765800000000000E9    -9.732473050051170E-1   -3.216393345614989E-2
 5.805700000000000E9    -9.730753496838769E-1   -3.246525032904959E-2
 5.845600000000000E9    -9.728475447533863E-1   -3.236914176244923E-2
 5.885500000000000E9    -9.729894955600403E-1   -3.177290662231939E-2
 5.925400000000000E9    -9.729083211721407E-1   -3.151299586568530E-2
 5.965300000000000E9    -9.727675801123313E-1   -3.098122647854703E-2
 6.005200000000000E9    -9.726755471650046E-1   -3.119877499126986E-2
 6.045100000000000E9    -9.726484140783863E-1   -3.117338676326754E-2
 6.085000000000000E9    -9.727143507082411E-1   -3.142216338784734E-2
 6.124900000000000E9    -9.722106656630926E-1   -3.096984051924323E-2
 6.164800000000000E9    -9.721020487617626E-1   -3.044998236272358E-2
 6.204700000000000E9    -9.723186203063818E-1   -3.034238094742123E-2
 6.244600000000000E9    -9.720497221571786E-1   -3.001218383372157E-2
 6.284500000000000E9    -9.723248679653714E-1   -3.032838906822183E-2
 6.324400000000000E9    -9.719976837918320E-1   -2.991601434198183E-2
 6.364300000000000E9    -9.721372941982329E-1   -3.025962840741309E-2
 6.404200000000000E9    -9.717565077164452E-1   -2.979994061275895E-2
 6.444100000000000E9    -9.721524435707706E-1   -2.997551078108798E-2
 6.484000000000000E9    -9.717808539847748E-1   -2.968081451341219E-2
 6.523900000000000E9    -9.718298795647436E-1   -2.919880868161590E-2
 6.563800000000000E9    -9.717135801153296E-1   -2.928959575459639E-2
 6.603700000000000E9    -9.710053799245145E-1   -2.891493604473877E-2
 6.643600000000000E9    -9.718495473880778E-1   -2.852157980649520E-2
 6.683500000000000E9    -9.717462490651853E-1   -2.893876544424431E-2
 6.723400000000000E9    -9.713716858326262E-1   -2.875706475530318E-2
 6.763300000000000E9    -9.715235930263760E-1   -2.897410996360546E-2
 6.803200000000000E9    -9.712989341242381E-1   -2.852679663911837E-2
 6.843100000000000E9    -9.711758196827650E-1   -2.840247731605114E-2
 6.883000000000000E9    -9.710608705866596E-1   -2.772808568927826E-2
 6.922900000000000E9    -9.710366104747593E-1   -2.841315393585211E-2
 6.962800000000000E9    -9.709241065300932E-1   -2.815847309638500E-2
 7.002700000000000E9    -9.711266426479508E-1   -2.803008414369870E-2
 7.042600000000000E9    -9.709060170018285E-1   -2.808691718945042E-2
 7.082500000000000E9    -9.708405587152622E-1   -2.798029590848695E-2
 7.122400000000000E9    -9.706109700432427E-1   -2.725902432459563E-2
 7.162300000000000E9    -9.705515465934810E-1   -2.785855361341954E-2
 7.202200000000000E9    -9.707329873084185E-1   -2.726707922382277E-2
 7.242100000000000E9    -9.703952561642726E-1   -2.769557818392098E-2
 7.282000000000000E9    -9.704527401835762E-1   -2.766705547873754E-2
 7.321900000000000E9    -9.700713523439384E-1   -2.736384628129752E-2
 7.361800000000000E9    -9.702739089115588E-1   -2.694675856860573E-2
 7.401700000000000E9    -9.701042199814537E-1   -2.703327605803673E-2
 7.441600000000000E9    -9.703755205817317E-1   -2.715024831145406E-2
 7.481500000000000E9    -9.700580037624773E-1   -2.695355354043234E-2
 7.521400000000000E9    -9.697198594365215E-1   -2.645206484070315E-2
 7.561300000000000E9    -9.698795719377912E-1   -2.666705970268989E-2
 7.601200000000000E9    -9.699388327632823E-1   -2.657238915898887E-2
 7.641100000000000E9    -9.696746081229394E-1   -2.629500263878339E-2
 7.681000000000000E9    -9.695468132695556E-1   -2.633894315421593E-2
 7.720900000000000E9    -9.694019615228540E-1   -2.651924829081479E-2
 7.760800000000000E9    -9.690798252753755E-1   -2.606530353189881E-2
 7.800700000000000E9    -9.695094048397153E-1   -2.633498154649089E-2
 7.840600000000000E9    -9.693201341816937E-1   -2.594918793193099E-2
 7.880500000000000E9    -9.692301195372055E-1   -2.614222771649105E-2
 7.920400000000000E9    -9.691552620783703E-1   -2.578289159021074E-2
 7.960300000000000E9    -9.689714063015480E-1   -2.528884748982999E-2
 8.000200000000000E9    -9.694259351283455E-1   -2.507170788570851E-2
 8.040100000000000E9    -9.689795528097651E-1   -2.580203693279192E-2
 8.080000000000000E9    -9.688257885667497E-1   -2.559666859089782E-2
 8.119900000000000E9    -9.686830660814874E-1   -2.581235602126024E-2
 8.159800000000000E9    -9.689507182723883E-1   -2.506502122401204E-2
 8.199700000000000E9    -9.685620343143857E-1   -2.533087849770377E-2
 8.239600000000000E9    -9.689218811635301E-1   -2.518864009568877E-2
 8.279500000000000E9    -9.687258688450150E-1   -2.508952440334596E-2
 8.319400000000000E9    -9.683391421779546E-1   -2.500808543169498E-2
 8.359300000000000E9    -9.685679449969986E-1   -2.466030236890264E-2
 8.399200000000000E9    -9.683693216005336E-1   -2.481370637618263E-2
 8.439100000000000E9    -9.677144723460398E-1   -2.518470942314624E-2
 8.479000000000000E9    -9.684219382552808E-1   -2.520760112594144E-2
 8.518900000000000E9    -9.676412701001589E-1   -2.510239961175774E-2
 8.558800000000000E9    -9.681243468801155E-1   -2.513252482755946E-2
 8.598700000000000E9    -9.678605569281862E-1   -2.439681442565378E-2
 8.638600000000000E9    -9.684152622881897E-1   -2.452947770065939E-2
 8.678500000000000E9    -9.677215531462189E-1   -2.468690286387001E-2
 8.718400000000000E9    -9.679974484654807E-1   -2.489333514491611E-2
 8.758300000000000E9    -9.676064393099705E-1   -2.457135108515555E-2
 8.798200000000000E9    -9.676482915438152E-1   -2.477553894577673E-2
 8.838100000000000E9    -9.676872036924691E-1   -2.473690954676038E-2
 8.878000000000000E9    -9.676441204229096E-1   -2.481524613669156E-2
 8.917900000000000E9    -9.673112892375384E-1   -2.430367266803135E-2
 8.957800000000000E9    -9.670149997337573E-1   -2.533020020987206E-2
 8.997700000000000E9    -9.668777333512404E-1   -2.427164433250444E-2
 9.037600000000000E9    -9.672355603893067E-1   -2.537715792611947E-2
 9.077500000000000E9    -9.669152988362364E-1   -2.492788614561822E-2
 9.117400000000000E9    -9.666618265283754E-1   -2.519358232542083E-2
 9.157300000000000E9    -9.669051073351852E-1   -2.467717876470167E-2
 9.197200000000000E9    -9.665899852633337E-1   -2.437380581026975E-2
 9.237100000000000E9    -9.665616083099965E-1   -2.453072839787264E-2
 9.277000000000000E9    -9.667286236347171E-1   -2.560586758834041E-2
 9.316900000000000E9    -9.666822441725587E-1   -2.499804632918564E-2
 9.356800000000000E9    -9.661242945146555E-1   -2.545686234867284E-2
 9.396700000000000E9    -9.666450897248658E-1   -2.435261970909632E-2
 9.436600000000000E9    -9.660796553314777E-1   -2.454667602287826E-2
 9.476500000000000E9    -9.664006820743869E-1   -2.447614723346861E-2
 9.516400000000000E9    -9.664393871373866E-1   -2.480598339065466E-2
 9.556300000000000E9    -9.665720441471950E-1   -2.486614156882036E-2
 9.596200000000000E9    -9.661655995021938E-1   -2.476790172882503E-2
 9.636100000000000E9    -9.657902160330163E-1   -2.460551708023470E-2
 9.676000000000000E9    -9.661381584097304E-1   -2.468142908520324E-2
 9.715900000000000E9    -9.654576718784619E-1   -2.429855687483794E-2
 9.755800000000000E9    -9.659641062940076E-1   -2.487753244336527E-2
 9.795700000000000E9    -9.657645987171665E-1   -2.472056167004165E-2
 9.835600000000000E9    -9.660208506320782E-1   -2.522001807948299E-2
 9.875500000000000E9    -9.653022461275159E-1   -2.498025272623378E-2
 9.915400000000000E9    -9.654323346796897E-1   -2.549373601251954E-2
 9.955300000000000E9    -9.651149322287728E-1   -2.425014859539161E-2
 9.995200000000000E9    -9.651350287234352E-1   -2.503211224626053E-2
 1.003510000000000E+10  -9.653527150404666E-1   -2.504963655500043E-2
 1.007500000000000E+10  -9.649954404357367E-1   -2.523949517614989E-2
 1.011490000000000E+10  -9.651904726449658E-1   -2.489785876202012E-2
 1.015480000000000E+10  -9.649560716193584E-1   -2.583735556410312E-2
 1.019470000000000E+10  -9.649534580220698E-1   -2.520428092789133E-2
 1.023460000000000E+10  -9.649321993826485E-1   -2.582535246757526E-2
 1.027450000000000E+10  -9.649112695897849E-1   -2.538725665884858E-2
 1.031440000000000E+10  -9.643303670061291E-1   -2.507746996390512E-2
 1.035430000000000E+10  -9.649125302579771E-1   -2.479061480963075E-2
 1.039420000000000E+10  -9.641888462146107E-1   -2.539180415771591E-2
 1.043410000000000E+10  -9.647217430334081E-1   -2.593874507863392E-2
 1.047400000000000E+10  -9.639802592290393E-1   -2.579625445673810E-2
 1.051390000000000E+10  -9.644296504025419E-1   -2.611933185855107E-2
 1.055380000000000E+10  -9.637573085579312E-1   -2.512268150700083E-2
 1.059370000000000E+10  -9.640471445102916E-1   -2.494020797294467E-2
 1.063360000000000E+10  -9.638752263561678E-1   -2.512977674535681E-2
 1.067350000000000E+10  -9.642367716679913E-1   -2.627672868241136E-2
 1.071340000000000E+10  -9.634854235980702E-1   -2.551164200612670E-2
 1.075330000000000E+10  -9.638326652667261E-1   -2.602581784006074E-2
 1.079320000000000E+10  -9.634690475636015E-1   -2.539407715758939E-2
 1.083310000000000E+10  -9.635940432088770E-1   -2.597146051104016E-2
 1.087300000000000E+10  -9.636791475253907E-1   -2.565667212815729E-2
 1.091290000000000E+10  -9.635861572150444E-1   -2.675304557068968E-2
 1.095280000000000E+10  -9.633662577074430E-1   -2.557253860173011E-2
 1.099270000000000E+10  -9.635840757710571E-1   -2.682490873489280E-2
 1.103260000000000E+10  -9.634805599885793E-1   -2.640927211965008E-2
 1.107250000000000E+10  -9.627598516700908E-1   -2.666264574769464E-2
 1.111240000000000E+10  -9.630250452325834E-1   -2.566776578737989E-2
 1.115230000000000E+10  -9.627627314236524E-1   -2.690915313961675E-2
 1.119220000000000E+10  -9.626784796627345E-1   -2.653775836800511E-2
 1.123210000000000E+10  -9.627514064610180E-1   -2.645028635042936E-2
 1.127200000000000E+10  -9.625189068425412E-1   -2.658675130957515E-2
 1.131190000000000E+10  -9.627712270978696E-1   -2.666165999501852E-2
